(1619012979.648408) can0 458#1E25000000000000
(1619012979.648966) can0 457#AE8C1C0000000000
(1619012979.650770) can0 456#5700000000000000
(1619012979.655151) can0 459#A3FFDF7FF01F0000
(1619012979.660772) can0 052#33EB030000000000
(1619012979.670771) can0 459#9CFFDE7FF61F0000
(1619012979.680772) can0 457#B18C1D0000000000
(1619012979.688778) can0 456#5900000000000000
(1619012979.690771) can0 45A#E5FF020000000000
(1619012979.695485) can0 459#88FFDCFFF61F0000
(1619012979.697163) can0 456#5A00000000000000
(1619012979.705063) can0 458#1E25000000000000
(1619012979.710737) can0 052#33EB030000000000
(1619012979.715156) can0 459#79FFDCFFF91F0000
(1619012979.726762) can0 457#B48C1E0000000000
(1619012979.726860) can0 456#5C00000000000000
(1619012979.731834) can0 457#B40C000000000000
(1619012979.732828) can0 459#6FFFDC7F00000000
(1619012979.737613) can0 456#5D00000000000000
(1619012979.738737) can0 458#1E25000000000000
(1619012979.744989) can0 45A#DE7F040000000000
(1619012979.753477) can0 052#33EB030000000000
(1619012979.753739) can0 459#62FFDC7F00000000
(1619012979.757992) can0 45A#DE7F000000000000
(1619012979.759707) can0 053#8200000000000000
(1619012979.760273) can0 054#5E03000000000000
(1619012979.763789) can0 457#B60C180000000000
(1619012979.766929) can0 053#8200000000000000
(1619012979.768291) can0 456#5000000000000000
(1619012979.770774) can0 459#65FFDCFFFF1F0000
(1619012979.775060) can0 459#62FFDA7FFF1F0000
(1619012979.778178) can0 458#1E25000000000000
(1619012979.785620) can0 457#C00C190000000000
(1619012979.785888) can0 456#5100000000000000
(1619012979.793718) can0 45A#DCFF050000000000
(1619012979.799623) can0 052#33EB030000000000
(1619012979.801261) can0 459#71FFDCFF02000000
(1619012979.812599) can0 456#5300000000000000
(1619012979.812855) can0 459#6CFFDC7F04000000
(1619012979.823659) can0 458#1E25000000000000
(1619012979.831310) can0 456#5400000000000000
(1619012979.832071) can0 457#C70C1A0000000000
(1619012979.835771) can0 459#83FFDCFF01000000
(1619012979.836551) can0 052#33EB030000000000
(1619012979.847787) can0 45A#DA7F070000000000
(1619012979.861398) can0 456#5600000000000000
(1619012979.861627) can0 459#88FFDC7F02000000
(1619012979.874039) can0 457#C70C1B0000000000
(1619012979.883826) can0 456#5700000000000000
(1619012979.884498) can0 459#9EFFDEFF02000000
(1619012979.889830) can0 052#33EB030000000000
(1619012979.893516) can0 458#1E25000000000000
(1619012979.896618) can0 459#B0FFDEFF03000000
(1619012979.897401) can0 456#5900000000000000
(1619012979.904954) can0 457#CA0C1C0000000000
(1619012979.913802) can0 45A#DC7F010000000000
(1619012979.927925) can0 459#BCFFDEFF02000000
(1619012979.928152) can0 456#5A00000000000000
(1619012979.936065) can0 458#1E25000000000000
(1619012979.936310) can0 052#33EB030000000000
(1619012979.947877) can0 459#C6FFDEFF01000000
(1619012979.949680) can0 456#5C00000000000000
(1619012979.950776) can0 457#D50C1D0000000000
(1619012979.966300) can0 459#CBFFDEFF02000000
(1619012979.966839) can0 456#5D00000000000000
(1619012979.973786) can0 45A#DEFF020000000000
(1619012979.981540) can0 459#D5FFDF7F03000000
(1619012979.982786) can0 052#33EB030000000000
(1619012979.988719) can0 458#1E25000000000000
(1619012979.988964) can0 052#00E8030000000000
(1619012979.989890) can0 456#5000000000000000
(1619012979.995815) can0 457#DA0C1E0000000000
(1619012980.000193) can0 459#E2FFDFFFFF1F0000
(1619012980.004341) can0 459#ECFFDFFFFF1F0000
(1619012980.008095) can0 458#1E25000000000000
(1619012980.008737) can0 456#5100000000000000
(1619012980.022408) can0 457#DC0C1F0000000000
(1619012980.023786) can0 052#33EB030000000000
(1619012980.026789) can0 45A#DE7F040000000000
(1619012980.029420) can0 456#5300000000000000
(1619012980.030445) can0 459#F1FFDFFFFF1F0000
(1619012980.034788) can0 459#F1FFDF7F00000000
(1619012980.037948) can0 457#E38C180000000000
(1619012980.045041) can0 459#F3FFDFFF01000000
(1619012980.048484) can0 458#1E25000000000000
(1619012980.052787) can0 456#5400000000000000
(1619012980.060772) can0 45A#DFFF050000000000
(1619012980.064791) can0 052#32EB030000000000
(1619012980.073764) can0 459#FBFFDFFF00000000
(1619012980.076860) can0 456#5600000000000000
(1619012980.079788) can0 457#EB8C190000000000
(1619012980.086028) can0 459#0200DFFF00000000
(1619012980.122619) can0 458#1E25000000000000
(1619012980.124785) can0 456#5700000000000000
(1619012980.127467) can0 459#1600DFFF00000000
(1619012980.128739) can0 052#32EB030000000000
(1619012980.131147) can0 457#F28C1A0000000000
(1619012980.135052) can0 45A#DF7F070000000000
(1619012980.137788) can0 456#5900000000000000
(1619012980.139055) can0 459#1600DFFF02000000
(1619012980.146112) can0 456#5A00000000000000
(1619012980.146406) can0 459#1D00E17F04000000
(1619012980.153288) can0 458#1E25000000000000
(1619012980.154785) can0 052#32EB030000000000
(1619012980.167697) can0 457#F78C1B0000000000
(1619012980.176092) can0 456#5C00000000000000
(1619012980.176299) can0 459#1800E17F07000000
(1619012980.183684) can0 45A#DF7F010000000000
(1619012980.185739) can0 456#5D00000000000000
(1619012980.189935) can0 459#1800E3FF07000000
(1619012980.193703) can0 458#1E25000000000000
(1619012980.196741) can0 052#32EB030000000000
(1619012980.205069) can0 457#F78C1C0000000000
(1619012980.206227) can0 052#00E8030000000000
(1619012980.206738) can0 456#5000000000000000
(1619012980.213738) can0 459#1B00E57F0A000000
(1619012980.227900) can0 459#1D00E8FF12000000
(1619012980.241515) can0 456#5100000000000000
(1619012980.242785) can0 457#FE8C1D0000000000
(1619012980.246834) can0 052#32EB030000000000
(1619012980.248788) can0 45A#E1FF020000000000
(1619012980.250668) can0 456#5300000000000000
(1619012980.251889) can0 458#1E25000000000000
(1619012980.255961) can0 459#1B00EAFF13000000
(1619012980.266786) can0 459#1D00EEFF16000000
(1619012980.280685) can0 457#058D1E0000000000
(1619012980.281786) can0 456#5400000000000000
(1619012980.288841) can0 052#32EB030000000000
(1619012980.289737) can0 459#2500F37F1C000000
(1619012980.296282) can0 458#1E25000000000000
(1619012980.298738) can0 456#5600000000000000
(1619012980.304785) can0 45A#E87F040000000000
(1619012980.310770) can0 459#2700F77F1E000000
(1619012980.312247) can0 456#5700000000000000
(1619012980.313738) can0 457#0E0D180000000000
(1619012980.317928) can0 459#3E00FC7F20000000
(1619012980.319513) can0 052#32EB030000000000
(1619012980.326063) can0 459#4D00030022000000
(1619012980.331729) can0 458#1E25000000000000
(1619012980.332284) can0 051#3203000000000000
(1619012980.341143) can0 457#100D190000000000
(1619012980.349151) can0 456#5900000000000000
(1619012980.349365) can0 45A#F3FF050000000000
(1619012980.356122) can0 053#8200000000000000
(1619012980.356677) can0 054#5E03000000000000
(1619012980.357190) can0 459#5900070021000000
(1619012980.371504) can0 456#5A00000000000000
(1619012980.371741) can0 459#75000C0023000000
(1619012980.375500) can0 458#1E25000000000000
(1619012980.377827) can0 052#32EB030000000000
(1619012980.384947) can0 457#1A0D1A0000000000
(1619012980.393745) can0 456#5C00000000000000
(1619012980.394016) can0 459#8900138023000000
(1619012980.407536) can0 45A#0300070000000000
(1619012980.409738) can0 456#5D00000000000000
(1619012980.416255) can0 459#9800190027000000
(1619012980.427752) can0 457#1A0D1B0000000000
(1619012980.428737) can0 052#32EB030000000000
(1619012980.431843) can0 459#9D00208025000000
(1619012980.434422) can0 052#00E8030000000000
(1619012980.434722) can0 456#5000000000000000
(1619012980.437016) can0 458#1E25000000000000
(1619012980.441787) can0 459#BB00250024000000
(1619012980.446170) can0 457#230D1C0000000000
(1619012980.453785) can0 45A#1300010000000000
(1619012980.461168) can0 456#5100000000000000
(1619012980.461804) can0 459#D4002C802B000000
(1619012980.475450) can0 458#1E25000000000000
(1619012980.483993) can0 052#32EB030000000000
(1619012980.484224) can0 459#E500328022000000
(1619012980.489910) can0 456#5300000000000000
(1619012980.490770) can0 457#2A0D1D0000000000
(1619012980.494752) can0 459#0101370021000000
(1619012980.510204) can0 45A#2580020000000000
(1619012980.512872) can0 456#5400000000000000
(1619012980.516237) can0 459#10013C0021000000
(1619012980.517787) can0 052#32EB030000000000
(1619012980.521742) can0 458#1E25000000000000
(1619012980.529785) can0 457#310D1E0000000000
(1619012980.534837) can0 456#5600000000000000
(1619012980.536785) can0 459#1A0140801B000000
(1619012980.543986) can0 459#3D01430018000000
(1619012980.555147) can0 458#1E25000000000000
(1619012980.555663) can0 456#5700000000000000
(1619012980.560771) can0 457#380D1F0000000000
(1619012980.565608) can0 052#32EB030000000000
(1619012980.566371) can0 45A#3700040000000000
(1619012980.580176) can0 459#4201478015000000
(1619012980.589787) can0 459#5801490011000000
(1619012980.596352) can0 456#5900000000000000
(1619012980.596585) can0 457#3D8D180000000000
(1619012980.603773) can0 456#5A00000000000000
(1619012980.604786) can0 459#65014C000D000000
(1619012980.612737) can0 052#32EB030000000000
(1619012980.613002) can0 458#1E25000000000000
(1619012980.618834) can0 45A#4380050000000000
(1619012980.626235) can0 459#83014C0007000000
(1619012980.627739) can0 456#5C00000000000000
(1619012980.633737) can0 457#3F8D190000000000
(1619012980.638042) can0 459#99014E0004000000
(1619012980.643387) can0 458#1E25000000000000
(1619012980.649918) can0 459#A1014E8000000000
(1619012980.650743) can0 456#5D00000000000000
(1619012980.664743) can0 457#468D1A0000000000
(1619012980.677531) can0 052#32EB030000000000
(1619012980.680782) can0 45A#4C00070000000000
(1619012980.683094) can0 052#00E8030000000000
(1619012980.683798) can0 456#5000000000000000
(1619012980.694746) can0 459#99014C00FE1F0000
(1619012980.701458) can0 459#92014C80FF1F0000
(1619012980.715868) can0 458#1E25000000000000
(1619012980.717330) can0 456#5100000000000000
(1619012980.724586) can0 457#508D1B0000000000
(1619012980.725560) can0 052#32EB030000000000
(1619012980.735854) can0 456#5300000000000000
(1619012980.736198) can0 459#7E014C00FD1F0000
(1619012980.746738) can0 45A#4E00010000000000
(1619012980.761346) can0 456#5400000000000000
(1619012980.761689) can0 459#71014B80FA1F0000
(1619012980.769008) can0 458#1E25000000000000
(1619012980.770770) can0 052#32EB030000000000
(1619012980.782735) can0 457#548D1C0000000000
(1619012980.784739) can0 456#5600000000000000
(1619012980.790558) can0 459#5B014B00FA1F0000
(1619012980.795533) can0 459#44014980F71F0000
(1619012980.796008) can0 456#5700000000000000
(1619012980.802607) can0 457#5A8D1D0000000000
(1619012980.802838) can0 052#32EB030000000000
(1619012980.808890) can0 45A#4C80020000000000
(1619012980.816770) can0 459#1C014700F51F0000
(1619012980.819969) can0 458#1E25000000000000
(1619012980.823172) can0 456#5900000000000000
(1619012980.825786) can0 459#03014500F51F0000
(1619012980.827786) can0 457#638D1E0000000000
(1619012980.831786) can0 459#E0004300F51F0000
(1619012980.839696) can0 458#1E25000000000000
(1619012980.840257) can0 456#5A00000000000000
(1619012980.843739) can0 45A#4900040000000000
(1619012980.847944) can0 052#32EB030000000000
(1619012980.848163) can0 459#C5004200F41F0000
(1619012980.852361) can0 457#690D180000000000
(1619012980.858739) can0 459#AE004080F41F0000
(1619012980.864167) can0 456#5C00000000000000
(1619012980.864339) can0 459#9D003C00F11F0000
(1619012980.870774) can0 458#1E25000000000000
(1619012980.875981) can0 457#6B0D190000000000
(1619012980.877955) can0 45A#4380050000000000
(1619012980.892790) can0 459#98003C00F61F0000
(1619012980.894787) can0 456#5D00000000000000
(1619012980.912742) can0 459#8B003A00FA1F0000
(1619012980.940094) can0 458#1E25000000000000
(1619012980.940312) can0 052#32EB030000000000
(1619012980.964495) can0 457#730D1A0000000000
(1619012980.965189) can0 052#00E8030000000000
(1619012980.970771) can0 456#5000000000000000
(1619012980.977261) can0 459#86003980FA1F0000
(1619012980.986336) can0 456#5100000000000000
(1619012980.990773) can0 45A#3C00070000000000
(1619012981.000436) can0 052#32EB030000000000
(1619012981.000768) can0 459#77003980FD1F0000
(1619012981.023322) can0 456#5300000000000000
(1619012981.030688) can0 457#760D1B0000000000
(1619012981.031322) can0 457#760D000000000000
(1619012981.040771) can0 459#7700390000000000
(1619012981.045294) can0 053#8200000000000000
(1619012981.045876) can0 054#5E03000000000000
(1619012981.050232) can0 458#1E25000000000000
(1619012981.050771) can0 456#5400000000000000
(1619012981.051444) can0 458#1E25000000000000
(1619012981.055693) can0 459#8400390000000000
(1619012981.056306) can0 457#7C0D1C0000000000
(1619012981.060559) can0 052#32EB030000000000
(1619012981.061089) can0 45A#3900010000000000
(1619012981.067231) can0 456#5600000000000000
(1619012981.070767) can0 459#9D003900FF1F0000
(1619012981.076130) can0 458#1E25000000000000
(1619012981.080768) can0 456#5700000000000000
(1619012981.090770) can0 459#A4003900FD1F0000
(1619012981.098251) can0 052#32EB030000000000
(1619012981.099162) can0 457#820D1D0000000000
(1619012981.105992) can0 459#A2003700FB1F0000
(1619012981.107667) can0 456#5900000000000000
(1619012981.114184) can0 45A#3980020000000000
(1619012981.120290) can0 456#5A00000000000000
(1619012981.127846) can0 459#9D003780F81F0000
(1619012981.130768) can0 052#32EB030000000000
(1619012981.132427) can0 458#1E25000000000000
(1619012981.137229) can0 457#880D1E0000000000
(1619012981.143286) can0 456#5C00000000000000
(1619012981.149723) can0 459#9D003500F71F0000
(1619012981.150329) can0 456#5D00000000000000
(1619012981.150771) can0 459#98003300F71F0000
(1619012981.154419) can0 458#1E25000000000000
(1619012981.156997) can0 051#3103000000000000
(1619012981.160768) can0 457#8C0D1F0000000000
(1619012981.170698) can0 45A#3700040000000000
(1619012981.174974) can0 052#32EB030000000000
(1619012981.180234) can0 459#89003280F31F0000
(1619012981.180773) can0 052#00E8030000000000
(1619012981.190768) can0 456#5000000000000000
(1619012981.200771) can0 459#89003000F41F0000
(1619012981.204058) can0 457#8C8D180000000000
(1619012981.207751) can0 456#5100000000000000
(1619012981.208719) can0 459#86002C00F31F0000
(1619012981.209487) can0 052#32EB030000000000
(1619012981.212607) can0 458#1E25000000000000
(1619012981.214800) can0 456#5300000000000000
(1619012981.215411) can0 45A#3380050000000000
(1619012981.229908) can0 459#7A002C80F51F0000
(1619012981.233890) can0 456#5400000000000000
(1619012981.240769) can0 457#8D8D190000000000
(1619012981.246517) can0 052#32EB030000000000
(1619012981.250771) can0 459#5E002A80F61F0000
(1619012981.255950) can0 458#1E25000000000000
(1619012981.258940) can0 456#5600000000000000
(1619012981.265067) can0 459#4F002900F71F0000
(1619012981.271689) can0 456#5700000000000000
(1619012981.274546) can0 457#928D1A0000000000
(1619012981.276440) can0 052#32EB030000000000
(1619012981.280772) can0 45A#2C00070000000000
(1619012981.282955) can0 459#3E002980FB1F0000
(1619012981.293326) can0 459#2A002780FD1F0000
(1619012981.296597) can0 456#5900000000000000
(1619012981.300768) can0 458#1E25000000000000
(1619012981.310772) can0 457#988D1B0000000000
(1619012981.312969) can0 459#1D002780FE1F0000
(1619012981.315672) can0 456#5A00000000000000
(1619012981.318901) can0 45A#2900010000000000
(1619012981.320342) can0 052#32EB030000000000
(1619012981.320769) can0 459#1B002780FC1F0000
(1619012981.330777) can0 458#1E25000000000000
(1619012981.334844) can0 457#9A8D1C0000000000
(1619012981.338123) can0 456#5C00000000000000
(1619012981.340769) can0 459#18002780FC1F0000
(1619012981.349602) can0 459#11002500FE1F0000
(1619012981.350773) can0 457#A48D1D0000000000
(1619012981.357913) can0 45A#2780020000000000
(1619012981.358394) can0 456#5D00000000000000
(1619012981.360771) can0 459#0E002500FE1F0000
(1619012981.365658) can0 458#1E25000000000000
(1619012981.366555) can0 459#11002580FD1F0000
(1619012981.370775) can0 052#32EB030000000000
(1619012981.376414) can0 457#A48D1E0000000000
(1619012981.379415) can0 459#18002300FC1F0000
(1619012981.379935) can0 052#00E8030000000000
(1619012981.380270) can0 456#5000000000000000
(1619012981.380767) can0 458#1E25000000000000
(1619012981.390771) can0 45A#2500040000000000
(1619012981.400770) can0 459#20002380FA1F0000
(1619012981.406784) can0 457#A60D180000000000
(1619012981.412938) can0 456#5100000000000000
(1619012981.413142) can0 459#27002100F71F0000
(1619012981.421126) can0 052#32EB030000000000
(1619012981.428081) can0 459#2A002000F71F0000
(1619012981.430768) can0 458#1E25000000000000
(1619012981.435696) can0 456#5300000000000000
(1619012981.440771) can0 457#A70D190000000000
(1619012981.450777) can0 45A#2380050000000000
(1619012981.460774) can0 459#2A002080F71F0000
(1619012981.465182) can0 456#5400000000000000
(1619012981.469002) can0 459#1B001E80FB1F0000
(1619012981.489133) can0 458#1E25000000000000
(1619012981.490778) can0 052#32EB030000000000
(1619012981.512155) can0 457#AC0D1A0000000000
(1619012981.518360) can0 456#5600000000000000
(1619012981.520776) can0 459#0E001E80FD1F0000
(1619012981.530772) can0 45A#2000070000000000
(1619012981.537131) can0 456#5700000000000000
(1619012981.540777) can0 459#07001E80FD1F0000
(1619012981.548622) can0 052#32EB030000000000
(1619012981.550772) can0 457#B20D1B0000000000
(1619012981.560773) can0 459#FDFF1C80FF1F0000
(1619012981.564225) can0 456#5900000000000000
(1619012981.570072) can0 458#1E25000000000000
(1619012981.571644) can0 456#5A00000000000000
(1619012981.577883) can0 459#F3FF1E80FF1F0000
(1619012981.579210) can0 052#32EB030000000000
(1619012981.579983) can0 457#BB0D1C0000000000
(1619012981.590772) can0 45A#1E00010000000000
(1619012981.601375) can0 456#5C00000000000000
(1619012981.608887) can0 459#F3FF1C0001000000
(1619012981.609663) can0 458#1E25000000000000
(1619012981.610776) can0 456#5D00000000000000
(1619012981.616386) can0 458#1E25000000000000
(1619012981.620773) can0 459#F3FF1C0000000000
(1619012981.624409) can0 457#BB0D1D0000000000
(1619012981.629248) can0 052#32EB030000000000
(1619012981.637190) can0 459#F6FF1C80FF1F0000
(1619012981.637792) can0 053#8200000000000000
(1619012981.639244) can0 054#5E03000000000000
(1619012981.640771) can0 45A#1E80020000000000
(1619012981.649106) can0 459#F8FF1C00FF1F0000
(1619012981.649116) can0 053#8200000000000000
(1619012981.649257) can0 456#5000000000000000
(1619012981.668541) can0 458#1E25000000000000
(1619012981.669421) can0 456#5100000000000000
(1619012981.670771) can0 457#BF0D1E0000000000
(1619012981.676157) can0 052#32EB030000000000
(1619012981.680767) can0 459#F1FF1C80FD1F0000
(1619012981.683706) can0 459#F3FF1C80FD1F0000
(1619012981.688599) can0 456#5300000000000000
(1619012981.690767) can0 458#1E25000000000000
(1619012981.695437) can0 456#5400000000000000
(1619012981.700768) can0 457#C00D1F0000000000
(1619012981.705452) can0 45A#1C00040000000000
(1619012981.710767) can0 052#32EB030000000000
(1619012981.714990) can0 459#FDFF1A00FC1F0000
(1619012981.717971) can0 456#5600000000000000
(1619012981.728143) can0 459#EEFF1A80FA1F0000
(1619012981.730766) can0 457#C48D180000000000
(1619012981.740767) can0 459#F3FF1980F81F0000
(1619012981.743937) can0 458#1E25000000000000
(1619012981.749147) can0 456#5700000000000000
(1619012981.749690) can0 45A#1C80050000000000
(1619012981.750767) can0 052#32EB030000000000
(1619012981.760769) can0 459#EEFF1900F91F0000
(1619012981.770768) can0 457#CC8D190000000000
(1619012981.773661) can0 459#DDFF1700F81F0000
(1619012981.779283) can0 456#5900000000000000
(1619012981.780767) can0 458#1E25000000000000
(1619012981.790768) can0 459#C9FF1500FA1F0000
(1619012981.794191) can0 456#5A00000000000000
(1619012981.800767) can0 457#CC8D1A0000000000
(1619012981.804161) can0 052#32EB030000000000
(1619012981.809175) can0 45A#1900070000000000
(1619012981.820766) can0 459#C1FF1500FA1F0000
(1619012981.825395) can0 456#5C00000000000000
(1619012981.826044) can0 459#B2FF1500FD1F0000
(1619012981.840523) can0 458#1E25000000000000
(1619012981.847215) can0 457#CF8D1B0000000000
(1619012981.847838) can0 456#5D00000000000000
(1619012981.850770) can0 459#A1FF1300FE1F0000
(1619012981.860768) can0 45A#1500010000000000
(1619012981.882845) can0 052#32EB030000000000
(1619012981.886320) can0 459#94FF1380FA1F0000
(1619012981.890770) can0 052#00E8030000000000
(1619012981.891221) can0 456#5000000000000000
(1619012981.900767) can0 458#1E25000000000000
(1619012981.910768) can0 457#D58D1C0000000000
(1619012981.915811) can0 456#5100000000000000
(1619012981.919551) can0 459#8FFF1180FA1F0000
(1619012981.920767) can0 052#32EB030000000000
(1619012981.923148) can0 459#8DFF1080F71F0000
(1619012981.930554) can0 456#5300000000000000
(1619012981.931169) can0 457#DB8D1D0000000000
(1619012981.940770) can0 051#3103000000000000
(1619012981.950767) can0 45A#1380020000000000
(1619012981.953716) can0 456#5400000000000000
(1619012981.960769) can0 459#92FF1000F71F0000
(1619012981.968877) can0 052#32EB030000000000
(1619012981.970768) can0 458#1E25000000000000
(1619012981.973881) can0 456#5600000000000000
(1619012981.974412) can0 459#99FF0E00F61F0000
(1619012981.985943) can0 457#DB8D1E0000000000
(1619012981.990999) can0 456#5700000000000000
(1619012981.996567) can0 459#ABFF0C00F81F0000
(1619012981.997135) can0 458#1E25000000000000
(1619012982.000767) can0 052#32EB030000000000
(1619012982.010768) can0 45A#1000040000000000
(1619012982.020611) can0 459#B2FF0C8000000000
(1619012982.021150) can0 457#DB0D180000000000
(1619012982.027801) can0 456#5900000000000000
(1619012982.028615) can0 459#BCFF0C80FC1F0000
(1619012982.036485) can0 459#D3FF0C00FE1F0000
(1619012982.043139) can0 458#1E25000000000000
(1619012982.046772) can0 456#5A00000000000000
(1619012982.048444) can0 457#DF0D190000000000
(1619012982.054931) can0 052#32EB030000000000
(1619012982.060769) can0 45A#0C80050000000000
(1619012982.065137) can0 459#D8FF0C0000000000
(1619012982.066019) can0 45A#0C00000000000000
(1619012982.070768) can0 456#5C00000000000000
(1619012982.080209) can0 459#D8FF0C0000000000
(1619012982.080769) can0 458#1E25000000000000
(1619012982.094377) can0 457#E70D1A0000000000
(1619012982.100769) can0 456#5D00000000000000
(1619012982.110770) can0 459#D8FF0C80FA1F0000
(1619012982.116771) can0 45A#0C00070000000000
(1619012982.117710) can0 052#32EB030000000000
(1619012982.120768) can0 459#E2FF0C8005000000
(1619012982.126089) can0 052#00E8030000000000
(1619012982.126624) can0 456#5000000000000000
(1619012982.130767) can0 457#E70D1B0000000000
(1619012982.135357) can0 459#E9FF0E0009000000
(1619012982.140769) can0 458#1E25000000000000
(1619012982.156342) can0 456#5100000000000000
(1619012982.160769) can0 459#FDFF0E00FF1F0000
(1619012982.170771) can0 457#E70D1C0000000000
(1619012982.174637) can0 052#32EB030000000000
(1619012982.175231) can0 45A#0C00010000000000
(1619012982.180770) can0 456#5300000000000000
(1619012982.199570) can0 459#0E000E00FF1F0000
(1619012982.200119) can0 458#1E25000000000000
(1619012982.200768) can0 456#5400000000000000
(1619012982.216274) can0 459#18000E8000000000
(1619012982.219296) can0 052#32EB030000000000
(1619012982.220768) can0 457#E70D1D0000000000
(1619012982.223954) can0 456#5600000000000000
(1619012982.228717) can0 459#18000E80FF1F0000
(1619012982.230769) can0 45A#0E80020000000000
(1619012982.233404) can0 456#5700000000000000
(1619012982.238115) can0 459#16000C80FA1F0000
(1619012982.240769) can0 458#1E25000000000000
(1619012982.253752) can0 052#32EB030000000000
(1619012982.260773) can0 457#EC0D1E0000000000
(1619012982.270770) can0 459#1B000C80FF1F0000
(1619012982.271572) can0 456#5900000000000000
(1619012982.275983) can0 459#0C000E8004000000
(1619012982.276506) can0 053#8200000000000000
(1619012982.276836) can0 054#5E03000000000000
(1619012982.279426) can0 458#1E25000000000000
(1619012982.283682) can0 457#EB0D1F0000000000
(1619012982.288205) can0 456#5A00000000000000
(1619012982.290767) can0 45A#0E00040000000000
(1619012982.297213) can0 052#32EB030000000000
(1619012982.300768) can0 459#07000E0003000000
(1619012982.310768) can0 459#0E000E0001000000
(1619012982.316003) can0 456#5C00000000000000
(1619012982.320772) can0 457#EF8D180000000000
(1619012982.321493) can0 459#27000E8000000000
(1619012982.330775) can0 458#1E25000000000000
(1619012982.336245) can0 456#5D00000000000000
(1619012982.337154) can0 45A#0E80050000000000
(1619012982.350771) can0 459#3B000E0001000000
(1619012982.351605) can0 457#EF8D190000000000
(1619012982.356854) can0 052#32EB030000000000
(1619012982.357533) can0 459#4A000E8002000000
(1619012982.358137) can0 052#00E8030000000000
(1619012982.360777) can0 456#5000000000000000
(1619012982.370772) can0 458#1E25000000000000
(1619012982.377883) can0 459#4D00100003000000
(1619012982.388902) can0 457#F28D1A0000000000
(1619012982.389538) can0 456#5100000000000000
(1619012982.389664) can0 45A#0E00070000000000
(1619012982.403373) can0 459#4A00118008000000
(1619012982.407674) can0 052#32EB030000000000
(1619012982.410772) can0 459#430013000B000000
(1619012982.417918) can0 458#1E25000000000000
(1619012982.420773) can0 456#5300000000000000
(1619012982.449497) can0 457#F78D1B0000000000
(1619012982.455125) can0 456#5400000000000000
(1619012982.455826) can0 459#520015000C000000
(1619012982.460768) can0 45A#1000010000000000
(1619012982.463264) can0 052#32EB030000000000
(1619012982.469301) can0 459#590017800E000000
(1619012982.469799) can0 456#5600000000000000
(1619012982.470769) can0 458#1E25000000000000
(1619012982.480771) can0 457#F78D1C0000000000
(1619012982.486229) can0 459#6B001A0013000000
(1619012982.490767) can0 456#5700000000000000
(1619012982.500335) can0 052#32EB030000000000
(1619012982.500768) can0 459#7F001C8012000000
(1619012982.510767) can0 457#F68D1D0000000000
(1619012982.522963) can0 45A#1580020000000000
(1619012982.530768) can0 456#5900000000000000
(1619012982.534995) can0 456#5A00000000000000
(1619012982.536109) can0 459#8600200010000000
(1619012982.539570) can0 052#32EB030000000000
(1619012982.550769) can0 458#1E25000000000000
(1619012982.561507) can0 459#9F00238012000000
(1619012982.562784) can0 456#5C00000000000000
(1619012982.576830) can0 457#F48D1E0000000000
(1619012982.584138) can0 456#5D00000000000000
(1619012982.584749) can0 459#A700250014000000
(1619012982.588787) can0 458#1E25000000000000
(1619012982.591532) can0 45A#1C00040000000000
(1619012982.592591) can0 052#32EB030000000000
(1619012982.598790) can0 459#BB00290015000000
(1619012982.605518) can0 457#F40D180000000000
(1619012982.606051) can0 052#00E8030000000000
(1619012982.606313) can0 456#5000000000000000
(1619012982.613628) can0 459#C7002C0011000000
(1619012982.622786) can0 459#E0002E8011000000
(1619012982.628844) can0 458#1E25000000000000
(1619012982.635130) can0 457#F40D190000000000
(1619012982.636935) can0 456#5100000000000000
(1619012982.643533) can0 45A#2580050000000000
(1619012982.643774) can0 052#32EB030000000000
(1619012982.650725) can0 459#EF00320015000000
(1619012982.651405) can0 456#5300000000000000
(1619012982.659787) can0 459#0601358015000000
(1619012982.665267) can0 458#1E25000000000000
(1619012982.674788) can0 457#F90D1A0000000000
(1619012982.687913) can0 459#1001398015000000
(1619012982.689737) can0 456#5400000000000000
(1619012982.695219) can0 45A#2E00070000000000
(1619012982.695697) can0 052#32EB030000000000
(1619012982.704232) can0 456#5600000000000000
(1619012982.704738) can0 459#15013C8016000000
(1619012982.711248) can0 457#F90D1B0000000000
(1619012982.716788) can0 458#1E25000000000000
(1619012982.726037) can0 459#1C01400017000000
(1619012982.726706) can0 456#5700000000000000
(1619012982.741559) can0 459#2601438012000000
(1619012982.743787) can0 052#32EB030000000000
(1619012982.748750) can0 051#3103000000000000
(1619012982.749423) can0 457#F90D1C0000000000
(1619012982.763802) can0 45A#3900010000000000
(1619012982.768265) can0 456#5900000000000000
(1619012982.770595) can0 459#2E01450011000000
(1619012982.772739) can0 458#1E25000000000000
(1619012982.775495) can0 456#5A00000000000000
(1619012982.776738) can0 459#3001470010000000
(1619012982.786035) can0 052#32EB030000000000
(1619012982.786285) can0 457#F90D1D0000000000
(1619012982.793674) can0 459#30014B0010000000
(1619012982.801537) can0 45A#4380020000000000
(1619012982.802268) can0 456#5C00000000000000
(1619012982.807566) can0 459#2E014C000F000000
(1619012982.814787) can0 458#1E25000000000000
(1619012982.824740) can0 457#F90D1E0000000000
(1619012982.828426) can0 456#5D00000000000000
(1619012982.828660) can0 459#29014E800A000000
(1619012982.838667) can0 459#35014E0004000000
(1619012982.846339) can0 458#1E25000000000000
(1619012982.847786) can0 052#32EB030000000000
(1619012982.853775) can0 457#F90D1F0000000000
(1619012982.854323) can0 052#00E8030000000000
(1619012982.856786) can0 456#5000000000000000
(1619012982.867697) can0 45A#4B00040000000000
(1619012982.875342) can0 459#42014E0001000000
(1619012982.883984) can0 459#49014E80FE1F0000
(1619012982.890056) can0 456#5100000000000000
(1619012982.892787) can0 457#F98D180000000000
(1619012982.895773) can0 052#32EB030000000000
(1619012982.896786) can0 459#4E014C80F81F0000
(1619012982.905239) can0 458#1E25000000000000
(1619012982.907830) can0 456#5300000000000000
(1619012982.914739) can0 45A#4E80050000000000
(1619012982.921787) can0 459#42014C00F91F0000
(1619012982.933989) can0 053#8200000000000000
(1619012982.934638) can0 054#5E03000000000000
(1619012982.934823) can0 457#F98D190000000000
(1619012982.943592) can0 456#5400000000000000
(1619012982.943810) can0 459#26014B80F81F0000
(1619012982.947681) can0 052#32EB030000000000
(1619012982.948739) can0 458#1E25000000000000
(1619012982.952788) can0 456#5600000000000000
(1619012982.954581) can0 459#06014900F71F0000
(1619012982.959738) can0 457#F98D1A0000000000
(1619012982.972965) can0 45A#4C00070000000000
(1619012982.974112) can0 456#5700000000000000
(1619012982.981448) can0 052#32EB030000000000
(1619012982.984787) can0 459#EA004780F41F0000
(1619012982.990776) can0 459#CF004500F51F0000
(1619012982.996216) can0 458#1E25000000000000
(1619012983.000769) can0 457#FA8D1B0000000000
(1619012983.002796) can0 456#5900000000000000
(1619012983.011682) can0 459#B1004300F31F0000
(1619012983.015738) can0 45A#4900010000000000
(1619012983.026843) can0 459#95004080F11F0000
(1619012983.032678) can0 456#5A00000000000000
(1619012983.034788) can0 458#1E25000000000000
(1619012983.049031) can0 457#FA8D1C0000000000
(1619012983.049300) can0 052#32EB030000000000
(1619012983.055741) can0 459#7C003E80ED1F0000
(1619012983.074137) can0 456#5C00000000000000
(1619012983.074908) can0 459#6B003A80EE1F0000
(1619012983.094445) can0 457#FB8D1D0000000000
(1619012983.095785) can0 456#5D00000000000000
(1619012983.100880) can0 45A#4380020000000000
(1619012983.108698) can0 459#59003780ED1F0000
(1619012983.110771) can0 052#32EB030000000000
(1619012983.116222) can0 458#1E25000000000000
(1619012983.116524) can0 052#00E8030000000000
(1619012983.119787) can0 456#5000000000000000
(1619012983.123792) can0 459#4D003300EC1F0000
(1619012983.131782) can0 457#FB8D1E0000000000
(1619012983.132787) can0 456#5100000000000000
(1619012983.136743) can0 459#45003200F01F0000
(1619012983.137810) can0 052#32EB030000000000
(1619012983.145191) can0 458#1E25000000000000
(1619012983.147739) can0 456#5300000000000000
(1619012983.153601) can0 45A#3A00040000000000
(1619012983.161758) can0 459#39003000F21F0000
(1619012983.175938) can0 457#FB0D180000000000
(1619012983.177850) can0 456#5400000000000000
(1619012983.183810) can0 459#25002C00F11F0000
(1619012983.185747) can0 052#32EB030000000000
(1619012983.192115) can0 459#09002900ED1F0000
(1619012983.195492) can0 456#5600000000000000
(1619012983.196343) can0 458#1E25000000000000
(1619012983.205717) can0 457#FD0D190000000000
(1619012983.213372) can0 45A#3280050000000000
(1619012983.220776) can0 456#5700000000000000
(1619012983.223863) can0 459#04002700ED1F0000
(1619012983.229520) can0 052#32EB030000000000
(1619012983.230777) can0 459#FBFF2500F11F0000
(1619012983.236746) can0 458#1E25000000000000
(1619012983.248762) can0 457#FA0D1A0000000000
(1619012983.255799) can0 456#5900000000000000
(1619012983.256244) can0 459#FDFF2380F41F0000
(1619012983.261231) can0 45A#2900070000000000
(1619012983.261934) can0 456#5A00000000000000
(1619012983.273076) can0 459#F6FF2180F71F0000
(1619012983.281778) can0 052#32EB030000000000
(1619012983.282785) can0 457#FA0D1B0000000000
(1619012983.290770) can0 458#1E25000000000000
(1619012983.296990) can0 456#5C00000000000000
(1619012983.303998) can0 459#EEFF2000F91F0000
(1619012983.306795) can0 459#E9FF2080FF1F0000
(1619012983.310777) can0 456#5D00000000000000
(1619012983.313787) can0 457#FA0D1C0000000000
(1619012983.317786) can0 45A#2300010000000000
(1619012983.326295) can0 052#32EB030000000000
(1619012983.326521) can0 459#F3FF200000000000
(1619012983.326963) can0 45A#2300000000000000
(1619012983.340235) can0 458#1E25000000000000
(1619012983.340771) can0 052#00E8030000000000
(1619012983.342785) can0 456#5000000000000000
(1619012983.355322) can0 458#1E25000000000000
(1619012983.356060) can0 459#F1FF200000000000
(1619012983.362806) can0 457#FA0D1D0000000000
(1619012983.364800) can0 456#5100000000000000
(1619012983.367262) can0 459#FBFF208001000000
(1619012983.369740) can0 052#32EB030000000000
(1619012983.374737) can0 45A#2080020000000000
(1619012983.378507) can0 459#0200218000000000
(1619012983.380778) can0 456#5300000000000000
(1619012983.382787) can0 458#1E25000000000000
(1619012983.386737) can0 457#FA0D1E0000000000
(1619012983.390528) can0 457#FA0D000000000000
(1619012983.391764) can0 459#2200210000000000
(1619012983.398738) can0 459#2C00210000000000
(1619012983.401900) can0 458#1E25000000000000
(1619012983.405917) can0 456#5400000000000000
(1619012983.406085) can0 457#F50D1F0000000000
(1619012983.413140) can0 45A#2000040000000000
(1619012983.413737) can0 052#32EB030000000000
(1619012983.417805) can0 459#3100218000000000
(1619012983.424737) can0 459#3900218000000000
(1619012983.426906) can0 456#5600000000000000
(1619012983.430770) can0 457#F58D180000000000
(1619012983.442695) can0 457#F50D000000000000
(1619012983.442924) can0 459#3E00210000000000
(1619012983.452715) can0 458#1E25000000000000
(1619012983.453787) can0 456#5700000000000000
(1619012983.457726) can0 45A#2180050000000000
(1619012983.458786) can0 052#32EB030000000000
(1619012983.464739) can0 459#4300218001000000
(1619012983.468785) can0 457#F98D190000000000
(1619012983.476951) can0 459#4800218000000000
(1619012983.480272) can0 456#5900000000000000
(1619012983.480703) can0 458#1E25000000000000
(1619012983.484346) can0 459#5700218001000000
(1619012983.488808) can0 457#F98D1A0000000000
(1619012983.491737) can0 45A#2100070000000000
(1619012983.502121) can0 456#5A00000000000000
(1619012983.503851) can0 459#5700218002000000
(1619012983.505948) can0 459#5C00238007000000
(1619012983.507917) can0 052#32EB030000000000
(1619012983.510435) can0 458#1E25000000000000
(1619012983.514361) can0 457#F98D1B0000000000
(1619012983.517606) can0 459#5E0025800A000000
(1619012983.519739) can0 456#5C00000000000000
(1619012983.524849) can0 45A#2100010000000000
(1619012983.532059) can0 459#630027000B000000
(1619012983.535737) can0 458#1E25000000000000
(1619012983.547739) can0 457#F98D1C0000000000
(1619012983.554046) can0 456#5D00000000000000
(1619012983.555737) can0 459#720029000E000000
(1619012983.560741) can0 051#3103000000000000
(1619012983.562740) can0 459#7C002A800E000000
(1619012983.567848) can0 457#F98D1D0000000000
(1619012983.569790) can0 052#32EB030000000000
(1619012983.570556) can0 45A#2580020000000000
(1619012983.574023) can0 053#8200000000000000
(1619012983.574568) can0 054#5E03000000000000
(1619012983.578646) can0 459#8B002C800B000000
(1619012983.580165) can0 053#8200000000000000
(1619012983.580770) can0 456#5000000000000000
(1619012983.584969) can0 458#1E25000000000000
(1619012983.592113) can0 459#9300308012000000
(1619012983.594893) can0 456#5100000000000000
(1619012983.601058) can0 457#FB8D1E0000000000
(1619012983.602786) can0 052#32EB030000000000
(1619012983.607247) can0 459#9F0033000F000000
(1619012983.610770) can0 458#1E25000000000000
(1619012983.614321) can0 456#5300000000000000
(1619012983.615806) can0 45A#2A00040000000000
(1619012983.618718) can0 459#A70033800D000000
(1619012983.625787) can0 457#FB0D180000000000
(1619012983.629792) can0 459#B10037000C000000
(1619012983.633786) can0 459#B800370009000000
(1619012983.636850) can0 456#5400000000000000
(1619012983.637855) can0 458#1E25000000000000
(1619012983.644945) can0 457#FA0D190000000000
(1619012983.646738) can0 052#32EB030000000000
(1619012983.650770) can0 45A#3380050000000000
(1619012983.653738) can0 459#C000390004000000
(1619012983.659541) can0 456#5600000000000000
(1619012983.660769) can0 459#D400390003000000
(1619012983.663573) can0 458#1E25000000000000
(1619012983.668424) can0 457#FA0D1A0000000000
(1619012983.675739) can0 459#D400398002000000
(1619012983.682331) can0 45A#3700070000000000
(1619012983.683049) can0 456#5700000000000000
(1619012983.689625) can0 459#D100390000000000
(1619012983.689774) can0 45A#3700000000000000
(1619012983.693834) can0 052#32EB030000000000
(1619012983.694536) can0 457#FA0D1B0000000000
(1619012983.708931) can0 459#C7003980FD1F0000
(1619012983.716144) can0 456#5900000000000000
(1619012983.716785) can0 458#1E25000000000000
(1619012983.725787) can0 459#B6003700FC1F0000
(1619012983.730945) can0 456#5A00000000000000
(1619012983.733787) can0 457#FA0D1C0000000000
(1619012983.739077) can0 45A#3900010000000000
(1619012983.739265) can0 052#32EB030000000000
(1619012983.752730) can0 459#A4003700FC1F0000
(1619012983.761030) can0 458#1E25000000000000
(1619012983.762088) can0 456#5C00000000000000
(1619012983.768738) can0 459#8E003780FB1F0000
(1619012983.775448) can0 457#FA0D1D0000000000
(1619012983.776332) can0 456#5D00000000000000
(1619012983.789932) can0 459#7F003580FA1F0000
(1619012983.793767) can0 45A#3780020000000000
(1619012983.794786) can0 052#32EB030000000000
(1619012983.799003) can0 459#6B003300FA1F0000
(1619012983.799665) can0 052#00E8030000000000
(1619012983.800773) can0 456#5000000000000000
(1619012983.807200) can0 458#1E25000000000000
(1619012983.814738) can0 457#FA0D1E0000000000
(1619012983.820772) can0 459#59003300F81F0000
(1619012983.835966) can0 456#5100000000000000
(1619012983.836785) can0 459#57003280F81F0000
(1619012983.840640) can0 458#1E25000000000000
(1619012983.843360) can0 052#32EB030000000000
(1619012983.851664) can0 457#FB0D1F0000000000
(1619012983.852786) can0 456#5300000000000000
(1619012983.857064) can0 45A#3500040000000000
(1619012983.864934) can0 459#43003000F81F0000
(1619012983.869903) can0 456#5400000000000000
(1619012983.871787) can0 459#2C002E00F71F0000
(1619012983.880841) can0 052#32EB030000000000
(1619012983.881339) can0 457#FB8D180000000000
(1619012983.893453) can0 459#27002E80FA1F0000
(1619012983.893465) can0 458#1E25000000000000
(1619012983.893470) can0 456#5600000000000000
(1619012983.907985) can0 45A#3280050000000000
(1619012983.914325) can0 459#0E002E0000000000
(1619012983.914338) can0 45A#3200000000000000
(1619012983.924975) can0 457#FB8D190000000000
(1619012983.925153) can0 456#5700000000000000
(1619012983.925159) can0 459#07002E8001000000
(1619012983.925164) can0 052#32EB030000000000
(1619012983.927852) can0 458#1E25000000000000
(1619012983.930769) can0 459#1300308003000000
(1619012983.937165) can0 457#F98D1A0000000000
(1619012983.942176) can0 45A#2E00070000000000
(1619012983.942854) can0 456#5900000000000000
(1619012983.945540) can0 459#2000300004000000
(1619012983.952416) can0 459#2A00300003000000
(1619012983.956853) can0 458#1E25000000000000
(1619012983.966986) can0 456#5A00000000000000
(1619012983.967580) can0 457#F98D1B0000000000
(1619012983.979474) can0 052#32EB030000000000
(1619012983.980028) can0 459#3100300003000000
(1619012983.992004) can0 45A#3000010000000000
(1619012984.000545) can0 456#5C00000000000000
(1619012984.001891) can0 459#4500300001000000
(1619012984.016547) can0 458#1E25000000000000
(1619012984.016725) can0 456#5D00000000000000
(1619012984.024997) can0 457#F48D1C0000000000
(1619012984.037489) can0 052#32EB030000000000
(1619012984.037985) can0 459#6800328001000000
(1619012984.054131) can0 052#00E8030000000000
(1619012984.054316) can0 456#5000000000000000
(1619012984.055358) can0 459#7700328000000000
(1619012984.076422) can0 457#F48D1D0000000000
(1619012984.082494) can0 456#5100000000000000
(1619012984.083611) can0 45A#3080020000000000
(1619012984.092008) can0 052#32EB030000000000
(1619012984.093016) can0 459#89003080FB1F0000
(1619012984.096294) can0 456#5300000000000000
(1619012984.097016) can0 458#1E25000000000000
(1619012984.103605) can0 459#95003000FD1F0000
(1619012984.113738) can0 456#5400000000000000
(1619012984.120470) can0 457#F48D1E0000000000
(1619012984.123787) can0 052#32EB030000000000
(1619012984.142763) can0 459#81003000FF1F0000
(1619012984.142999) can0 456#5600000000000000
(1619012984.149927) can0 458#1E25000000000000
(1619012984.156115) can0 45A#3200040000000000
(1619012984.156339) can0 456#5700000000000000
(1619012984.173880) can0 459#75002E00FA1F0000
(1619012984.174099) can0 052#32EB030000000000
(1619012984.181301) can0 457#F40D180000000000
(1619012984.195400) can0 456#5900000000000000
(1619012984.195920) can0 459#6D002E00FC1F0000
(1619012984.204280) can0 053#8200000000000000
(1619012984.204573) can0 054#5E03000000000000
(1619012984.204973) can0 459#54002C80FC1F0000
(1619012984.211380) can0 456#5A00000000000000
(1619012984.212786) can0 458#1E25000000000000
(1619012984.219048) can0 052#32EB030000000000
(1619012984.219273) can0 457#F40D190000000000
(1619012984.226084) can0 45A#3080050000000000
(1619012984.233691) can0 456#5C00000000000000
(1619012984.233894) can0 459#4F002C00F91F0000
(1619012984.241066) can0 456#5D00000000000000
(1619012984.241960) can0 459#48002A80FB1F0000
(1619012984.248260) can0 458#1E25000000000000
(1619012984.263810) can0 052#32EB030000000000
(1619012984.264022) can0 457#F10D1A0000000000
(1619012984.272109) can0 052#00E8030000000000
(1619012984.272391) can0 456#5000000000000000
(1619012984.272508) can0 459#36002A80FC1F0000
(1619012984.276129) can0 45A#2C00070000000000
(1619012984.285568) can0 459#2A002A00FF1F0000
(1619012984.309795) can0 456#5100000000000000
(1619012984.312821) can0 457#F10D1B0000000000
(1619012984.335736) can0 052#32EB030000000000
(1619012984.335861) can0 459#1D002A0001000000
(1619012984.345552) can0 458#1E25000000000000
(1619012984.345661) can0 456#5300000000000000
(1619012984.353882) can0 459#16002A8001000000
(1619012984.354598) can0 051#3003000000000000
(1619012984.360720) can0 457#F10D1C0000000000
(1619012984.368498) can0 45A#2A00010000000000
(1619012984.376392) can0 456#5400000000000000
(1619012984.376827) can0 459#11002A0000000000
(1619012984.377136) can0 45A#2A00000000000000
(1619012984.383690) can0 052#32EB030000000000
(1619012984.384536) can0 458#1E25000000000000
(1619012984.389258) can0 456#5600000000000000
(1619012984.389883) can0 459#11002A0001000000
(1619012984.398566) can0 457#EF0D1D0000000000
(1619012984.399201) can0 456#5700000000000000
(1619012984.406585) can0 457#EF0D000000000000
(1619012984.406837) can0 459#13002A0000000000
(1619012984.406939) can0 052#32EB030000000000
(1619012984.413609) can0 45A#2A80020000000000
(1619012984.421428) can0 459#0E002A0000000000
(1619012984.421800) can0 45A#2A00000000000000
(1619012984.422286) can0 456#5900000000000000
(1619012984.428742) can0 458#1E25000000000000
(1619012984.429013) can0 456#5A00000000000000
(1619012984.436458) can0 457#EF0D1E0000000000
(1619012984.437738) can0 052#32EB030000000000
(1619012984.445467) can0 459#16002A80FF1F0000
(1619012984.449375) can0 459#13002A0000000000
(1619012984.450887) can0 456#5C00000000000000
(1619012984.451931) can0 458#1E25000000000000
(1619012984.456739) can0 457#EF0D1F0000000000
(1619012984.474533) can0 45A#2A00040000000000
(1619012984.476039) can0 456#5D00000000000000
(1619012984.489140) can0 052#32EB030000000000
(1619012984.489253) can0 459#16002A00FE1F0000
(1619012984.502868) can0 459#1B002980FD1F0000
(1619012984.503223) can0 052#00E8030000000000
(1619012984.503477) can0 456#5000000000000000
(1619012984.510923) can0 457#EF8D180000000000
(1619012984.515268) can0 459#16002900FD1F0000
(1619012984.540774) can0 458#1E25000000000000
(1619012984.541786) can0 456#5100000000000000
(1619012984.562957) can0 45A#2A80050000000000
(1619012984.564837) can0 052#32EB030000000000
(1619012984.569271) can0 459#04002980FB1F0000
(1619012984.569783) can0 456#5300000000000000
(1619012984.576851) can0 457#EF8D190000000000
(1619012984.578171) can0 459#04002980FC1F0000
(1619012984.580768) can0 456#5400000000000000
(1619012984.586547) can0 458#1E25000000000000
(1619012984.590767) can0 052#32EB030000000000
(1619012984.593583) can0 456#5600000000000000
(1619012984.600769) can0 459#F8FF2900FE1F0000
(1619012984.610768) can0 457#EC8D1A0000000000
(1619012984.616066) can0 456#5700000000000000
(1619012984.620767) can0 45A#2900070000000000
(1619012984.627534) can0 052#32EB030000000000
(1619012984.630770) can0 459#ECFF2780FA1F0000
(1619012984.635044) can0 459#E9FF2780F81F0000
(1619012984.637977) can0 456#5900000000000000
(1619012984.640768) can0 458#1E25000000000000
(1619012984.644868) can0 457#EA8D1B0000000000
(1619012984.650552) can0 459#ECFF2580FB1F0000
(1619012984.654440) can0 456#5A00000000000000
(1619012984.658559) can0 45A#2900010000000000
(1619012984.659089) can0 052#32EB030000000000
(1619012984.660768) can0 459#DAFF2300F81F0000
(1619012984.670766) can0 458#1E25000000000000
(1619012984.672564) can0 456#5C00000000000000
(1619012984.679008) can0 457#EA8D1C0000000000
(1619012984.680768) can0 459#DFFF2180F71F0000
(1619012984.689423) can0 459#DDFF2100F81F0000
(1619012984.690770) can0 457#EA8D1D0000000000
(1619012984.698255) can0 456#5D00000000000000
(1619012984.700771) can0 45A#2580020000000000
(1619012984.719424) can0 459#DDFF2000FA1F0000
(1619012984.720693) can0 052#32EB030000000000
(1619012984.723394) can0 458#1E25000000000000
(1619012984.729053) can0 052#00E8030000000000
(1619012984.730772) can0 456#5000000000000000
(1619012984.740770) can0 459#E4FF1E80F61F0000
(1619012984.744075) can0 457#EA8D1E0000000000
(1619012984.748315) can0 456#5100000000000000
(1619012984.749049) can0 459#E9FF1C00F61F0000
(1619012984.750768) can0 052#32EB030000000000
(1619012984.756811) can0 458#1E25000000000000
(1619012984.760771) can0 45A#2100040000000000
(1619012984.770777) can0 456#5300000000000000
(1619012984.780775) can0 459#E2FF1A80F21F0000
(1619012984.790773) can0 457#E80D180000000000
(1619012984.791635) can0 053#8200000000000000
(1619012984.796083) can0 054#5E03000000000000
(1619012984.796687) can0 459#E4FF1900F11F0000
(1619012984.800775) can0 456#5400000000000000
(1619012984.807709) can0 459#E9FF1700F71F0000
(1619012984.808907) can0 052#31EB030000000000
(1619012984.812736) can0 458#1E25000000000000
(1619012984.815755) can0 456#5600000000000000
(1619012984.820778) can0 457#E80D190000000000
(1619012984.830115) can0 45A#1C80050000000000
(1619012984.830776) can0 456#5700000000000000
(1619012984.838704) can0 459#DDFF1580F81F0000
(1619012984.840779) can0 052#31EB030000000000
(1619012984.848770) can0 459#CBFF1380ED1F0000
(1619012984.850776) can0 458#1E25000000000000
(1619012984.857156) can0 456#5900000000000000
(1619012984.860771) can0 457#EA0D1A0000000000
(1619012984.865848) can0 459#D3FF1000EF1F0000
(1619012984.870768) can0 456#5A00000000000000
(1619012984.874892) can0 45A#1700070000000000
(1619012984.877089) can0 052#31EB030000000000
(1619012984.878370) can0 459#CBFF0E80F51F0000
(1619012984.890768) can0 457#E80D1B0000000000
(1619012984.893995) can0 459#B0FF0A80EE1F0000
(1619012984.899391) can0 456#5C00000000000000
(1619012984.900770) can0 458#1E25000000000000
(1619012984.915726) can0 459#BFFF0880ED1F0000
(1619012984.920770) can0 456#5D00000000000000
(1619012984.930771) can0 457#E40D1C0000000000
(1619012984.934853) can0 45A#1000010000000000
(1619012984.938290) can0 052#31EB030000000000
(1619012984.940771) can0 459#BFFF0700F71F0000
(1619012984.945238) can0 052#00E8030000000000
(1619012984.950771) can0 456#5000000000000000
(1619012984.955604) can0 458#1E25000000000000
(1619012984.967963) can0 459#B0FF0500F91F0000
(1619012984.968549) can0 456#5100000000000000
(1619012984.970771) can0 457#E70D1D0000000000
(1619012984.984126) can0 052#31EB030000000000
(1619012984.987468) can0 459#A1FF0380F81F0000
(1619012984.989106) can0 456#5300000000000000
(1619012984.990771) can0 45A#0880020000000000
(1619012984.994078) can0 459#9EFF0380F81F0000
(1619012984.998147) can0 458#1E25000000000000
(1619012985.000770) can0 456#5400000000000000
(1619012985.005681) can0 457#E70D1E0000000000
(1619012985.006604) can0 052#31EB030000000000
(1619012985.019133) can0 459#94FF0300FE1F0000
(1619012985.028977) can0 459#8AFF0100FD1F0000
(1619012985.030767) can0 456#5600000000000000
(1619012985.230686) can0 458#1E25000000000000
(1619012985.231597) can0 456#5700000000000000
(1619012985.232513) can0 457#E40D1F0000000000
(1619012985.244293) can0 052#31EB030000000000
(1619012985.245045) can0 45A#0300040000000000
(1619012985.253161) can0 051#3003000000000000
(1619012985.257571) can0 459#83FF0100FE1F0000
(1619012985.270106) can0 459#7BFF0100FF1F0000
(1619012985.276161) can0 456#5900000000000000
(1619012985.280769) can0 457#E48D180000000000
(1619012985.284239) can0 456#5A00000000000000
(1619012985.290775) can0 459#7EFF0180FD1F0000
(1619012985.291517) can0 052#31EB030000000000
(1619012985.295169) can0 458#1E25000000000000
(1619012985.300766) can0 45A#0180050000000000
(1619012985.305278) can0 456#5C00000000000000
(1619012985.307705) can0 459#83FF0100FE1F0000
(1619012985.319894) can0 457#E48D190000000000
(1619012985.320230) can0 456#5D00000000000000
(1619012985.330768) can0 459#80FF0180FF1F0000
(1619012985.336313) can0 458#1E25000000000000
(1619012985.340770) can0 052#31EB030000000000
(1619012985.348994) can0 459#7BFF018000000000
(1619012985.349396) can0 052#00E8030000000000
(1619012985.350769) can0 456#5000000000000000
(1619012985.357410) can0 457#E38D1A0000000000
(1619012985.357865) can0 45A#0100070000000000
(1619012985.370410) can0 456#5100000000000000
(1619012985.373359) can0 459#7BFF010002000000
(1619012985.380771) can0 052#31EB030000000000
(1619012985.386295) can0 459#85FF018001000000
(1619012985.390768) can0 456#5300000000000000
(1619012985.400768) can0 458#1E25000000000000
(1619012985.403929) can0 457#E38D1B0000000000
(1619012985.407305) can0 456#5400000000000000
(1619012985.408544) can0 459#94FF030005000000
(1619012985.408992) can0 052#31EB030000000000
(1619012985.411966) can0 45A#0100010000000000
(1619012985.415497) can0 456#5600000000000000
(1619012985.420372) can0 459#A8FF038004000000
(1619012985.425481) can0 458#1E25000000000000
(1619012985.430096) can0 456#5700000000000000
(1619012985.430770) can0 457#E08D1C0000000000
(1619012985.440768) can0 052#31EB030000000000
(1619012985.450772) can0 459#CBFF038002000000
(1619012985.456038) can0 459#E2FF0580FD1F0000
(1619012985.456495) can0 456#5900000000000000
(1619012985.464041) can0 457#DF8D1D0000000000
(1619012985.470772) can0 456#5A00000000000000
(1619012985.471918) can0 45A#0380020000000000
(1619012985.476542) can0 052#31EB030000000000
(1619012985.480767) can0 459#F8FF0380FD1F0000
(1619012985.486147) can0 458#1E25000000000000
(1619012985.486253) can0 456#5C00000000000000
(1619012985.493658) can0 456#5D00000000000000
(1619012985.497211) can0 459#F6FF0380FC1F0000
(1619012985.508308) can0 457#DA8D1E0000000000
(1619012985.508916) can0 052#31EB030000000000
(1619012985.509744) can0 459#E9FF0180FB1F0000
(1619012985.519639) can0 458#1E25000000000000
(1619012985.519968) can0 053#8200000000000000
(1619012985.520769) can0 054#5E03000000000000
(1619012985.525225) can0 053#8200000000000000
(1619012985.525803) can0 456#5000000000000000
(1619012985.530639) can0 45A#0500040000000000
(1619012985.531634) can0 459#E4FF0100FF1F0000
(1619012985.535089) can0 456#5100000000000000
(1619012985.535989) can0 457#DA0D180000000000
(1619012985.540767) can0 052#31EB030000000000
(1619012985.553579) can0 459#D0FF0180FD1F0000
(1619012985.558604) can0 456#5300000000000000
(1619012985.560767) can0 459#C1FF0100FE1F0000
(1619012985.563930) can0 458#1E25000000000000
(1619012985.570768) can0 456#5500000000000000
(1619012985.576956) can0 457#D30D190000000000
(1619012985.580771) can0 052#31EB030000000000
(1619012985.584104) can0 45A#0180050000000000
(1619012985.590774) can0 456#5600000000000000
(1619012985.597625) can0 459#BCFF0100FE1F0000
(1619012985.599155) can0 459#B5FF010001000000
(1619012985.599680) can0 456#5700000000000000
(1619012985.606576) can0 458#1E25000000000000
(1619012985.608191) can0 052#31EB030000000000
(1619012985.614160) can0 457#D30D1A0000000000
(1619012985.615222) can0 456#5900000000000000
(1619012985.622326) can0 459#ABFF018002000000
(1619012985.629846) can0 456#5A00000000000000
(1619012985.632192) can0 45A#0100070000000000
(1619012985.634079) can0 052#31EB030000000000
(1619012985.643860) can0 459#B0FF010000000000
(1619012985.644547) can0 45A#0100000000000000
(1619012985.657390) can0 457#D30D1B0000000000
(1619012985.659744) can0 456#5C00000000000000
(1619012985.666889) can0 459#BFFF0100FF1F0000
(1619012985.667743) can0 456#5D00000000000000
(1619012985.680528) can0 458#1E25000000000000
(1619012985.695746) can0 052#31EB030000000000
(1619012985.696786) can0 459#BFFF018001000000
(1619012985.703750) can0 052#00E8030000000000
(1619012985.704595) can0 456#5000000000000000
(1619012985.704741) can0 457#D30D1C0000000000
(1619012985.708737) can0 45A#0100010000000000
(1619012985.711275) can0 456#5100000000000000
(1619012985.713435) can0 459#C6FF0180FD1F0000
(1619012985.714736) can0 052#31EB030000000000
(1619012985.717456) can0 458#1E25000000000000
(1619012985.719841) can0 456#5300000000000000
(1619012985.734242) can0 459#BCFF0100FE1F0000
(1619012985.741036) can0 456#5400000000000000
(1619012985.741737) can0 457#CC0D1D0000000000
(1619012985.745298) can0 052#31EB030000000000
(1619012985.752787) can0 459#B5FF018000000000
(1619012985.756789) can0 456#5600000000000000
(1619012985.760738) can0 45A#0180020000000000
(1619012985.770176) can0 459#B5FF018000000000
(1619012985.771639) can0 456#5700000000000000
(1619012985.785169) can0 458#1E25000000000000
(1619012985.786737) can0 052#31EB030000000000
(1619012985.793647) can0 457#C90D1E0000000000
(1619012985.800217) can0 457#C90D000000000000
(1619012985.800971) can0 459#B5FF010000000000
(1619012985.801092) can0 456#5900000000000000
(1619012985.808885) can0 459#B2FF010001000000
(1619012985.809063) can0 456#5A00000000000000
(1619012985.816019) can0 458#1E25000000000000
(1619012985.816236) can0 052#31EB030000000000
(1619012985.824067) can0 457#C90D1F0000000000
(1619012985.834919) can0 45A#0100040000000000
(1619012985.835153) can0 456#5C00000000000000
(1619012985.840068) can0 459#ABFF0180FF1F0000
(1619012985.845800) can0 456#5D00000000000000
(1619012985.846830) can0 459#A6FF0180FF1F0000
(1619012985.853872) can0 051#3003000000000000
(1619012985.854094) can0 457#C98D180000000000
(1619012985.861227) can0 458#1E25000000000000
(1619012985.868692) can0 052#31EB030000000000
(1619012985.869224) can0 459#A6FF010001000000
(1619012985.883024) can0 052#00E8030000000000
(1619012985.883208) can0 456#5000000000000000
(1619012985.886757) can0 45A#0180050000000000
(1619012985.888436) can0 459#A6FF010000000000
(1619012985.889737) can0 45A#0100000000000000
(1619012985.895019) can0 457#C68D190000000000
(1619012985.895242) can0 456#5100000000000000
(1619012985.905354) can0 459#A3FF018000000000
(1619012985.905807) can0 052#31EB030000000000
(1619012985.913298) can0 458#1E25000000000000
(1619012985.913528) can0 456#5300000000000000
(1619012985.921849) can0 459#ABFF030001000000
(1619012985.925828) can0 456#5400000000000000
(1619012985.928788) can0 457#C68D1A0000000000
(1619012985.935917) can0 052#31EB030000000000
(1619012985.936751) can0 45A#0100070000000000
(1619012985.943873) can0 459#B7FF030001000000
(1619012985.944355) can0 456#5600000000000000
(1619012985.950781) can0 459#C1FF0100FD1F0000
(1619012985.972836) can0 456#5700000000000000
(1619012985.973851) can0 458#1E25000000000000
(1619012985.977998) can0 052#31EB030000000000
(1619012985.988976) can0 457#C68D1B0000000000
(1619012985.996881) can0 459#B7FF0100FD1F0000
(1619012985.997569) can0 456#5900000000000000
(1619012986.004787) can0 45A#0300010000000000
(1619012986.010085) can0 053#8200000000000000
(1619012986.010773) can0 054#5E03000000000000
(1619012986.014787) can0 459#B0FF0100FD1F0000
(1619012986.017720) can0 456#5A00000000000000
(1619012986.019175) can0 458#1E25000000000000
(1619012986.023083) can0 052#31EB030000000000
(1619012986.026786) can0 457#CC8D1C0000000000
(1619012986.041108) can0 459#B0FF010003000000
(1619012986.048806) can0 456#5C00000000000000
(1619012986.049795) can0 459#A6FF0100FD1F0000
(1619012986.063899) can0 457#CB8D1D0000000000
(1619012986.064151) can0 456#5D00000000000000
(1619012986.070768) can0 45A#0180020000000000
(1619012986.072485) can0 052#31EB030000000000
(1619012986.073952) can0 459#A6FF0180FD1F0000
(1619012986.078787) can0 458#1E25000000000000
(1619012986.086235) can0 459#97FF018000000000
(1619012986.086956) can0 052#00E8030000000000
(1619012986.088739) can0 456#5000000000000000
(1619012986.093425) can0 457#C48D1E0000000000
(1619012986.100773) can0 459#88FF0180FF1F0000
(1619012986.107534) can0 458#1E25000000000000
(1619012986.115646) can0 45A#0100040000000000
(1619012986.116785) can0 456#5100000000000000
(1619012986.123202) can0 459#80FF0180FD1F0000
(1619012986.123442) can0 052#31EB030000000000
(1619012986.129700) can0 457#BE0D180000000000
(1619012986.131707) can0 456#5300000000000000
(1619012986.134363) can0 459#7BFF0180FF1F0000
(1619012986.146290) can0 459#71FF018001000000
(1619012986.153805) can0 458#1E25000000000000
(1619012986.154737) can0 456#5400000000000000
(1619012986.161847) can0 457#BF0D190000000000
(1619012986.166128) can0 052#31EB030000000000
(1619012986.167786) can0 45A#0180050000000000
(1619012986.176791) can0 459#6CFF0080FC1F0000
(1619012986.180014) can0 456#5600000000000000
(1619012986.180770) can0 459#74FF0000FC1F0000
(1619012986.190128) can0 458#1E25000000000000
(1619012986.197844) can0 457#BF0D1A0000000000
(1619012986.213016) can0 459#67FFFEFFFC1F0000
(1619012986.213083) can0 456#5700000000000000
(1619012986.228886) can0 45A#0100070000000000
(1619012986.228991) can0 052#31EB030000000000
(1619012986.236403) can0 459#60FFFE7FFD1F0000
(1619012986.244351) can0 456#5900000000000000
(1619012986.244937) can0 457#BF0D1B0000000000
(1619012986.247697) can0 456#5A00000000000000
(1619012986.249654) can0 459#56FFFE7FFE1F0000
(1619012986.252328) can0 052#31EB030000000000
(1619012986.253231) can0 458#1E25000000000000
(1619012986.256678) can0 459#53FFFE7FFE1F0000
(1619012986.265483) can0 457#BC0D1C0000000000
(1619012986.280496) can0 45A#FE7F010000000000
(1619012986.281436) can0 456#5C00000000000000
(1619012986.296099) can0 456#5D00000000000000
(1619012986.296382) can0 459#4EFFFC7FF91F0000
(1619012986.304353) can0 458#1E25000000000000
(1619012986.310109) can0 052#31EB030000000000
(1619012986.310599) can0 459#5DFFFA7FF61F0000
(1619012986.314220) can0 457#BC0D1D0000000000
(1619012986.323787) can0 052#00E8030000000000
(1619012986.324348) can0 456#5000000000000000
(1619012986.325219) can0 459#53FFF8FFF41F0000
(1619012986.330554) can0 45A#FEFF020000000000
(1619012986.343808) can0 459#4EFFF77FF21F0000
(1619012986.346295) can0 456#5100000000000000
(1619012986.354801) can0 458#1E25000000000000
(1619012986.356230) can0 052#31EB030000000000
(1619012986.369078) can0 457#BA0D1E0000000000
(1619012986.369672) can0 456#5300000000000000
(1619012986.382533) can0 459#51FFF5FFF81F0000
(1619012986.387122) can0 456#5400000000000000
(1619012986.393486) can0 459#47FFF5FFFD1F0000
(1619012986.394549) can0 052#31EB030000000000
(1619012986.398714) can0 458#1E25000000000000
(1619012986.407283) can0 456#5600000000000000
(1619012986.407931) can0 457#BA0D1F0000000000
(1619012986.413920) can0 45A#F87F040000000000
(1619012986.422421) can0 459#44FFF5FF02000000
(1619012986.425109) can0 456#5700000000000000
(1619012986.426670) can0 459#4CFFF77F08000000
(1619012986.431592) can0 052#31EB030000000000
(1619012986.432179) can0 457#B48D180000000000
(1619012986.438691) can0 459#53FFF8FF05000000
(1619012986.446447) can0 458#1E25000000000000
(1619012986.454781) can0 45A#F5FF050000000000
(1619012986.461843) can0 456#5900000000000000
(1619012986.462843) can0 459#6FFFF8FF02000000
(1619012986.483901) can0 457#B48D190000000000
(1619012986.484173) can0 456#5A00000000000000
(1619012986.498598) can0 459#80FFF8FF08000000
(1619012986.498828) can0 052#31EB030000000000
(1619012986.506003) can0 458#1E25000000000000
(1619012986.521223) can0 459#99FFFAFF05000000
(1619012986.521828) can0 456#5C00000000000000
(1619012986.526236) can0 457#B78D1A0000000000
(1619012986.529787) can0 456#5D00000000000000
(1619012986.534900) can0 45A#F87F070000000000
(1619012986.543706) can0 459#B7FFFAFF04000000
(1619012986.543938) can0 052#31EB030000000000
(1619012986.551410) can0 459#DAFFFCFF06000000
(1619012986.552104) can0 052#00E8030000000000
(1619012986.552739) can0 456#5000000000000000
(1619012986.560297) can0 458#1E25000000000000
(1619012986.564872) can0 457#B48D1B0000000000
(1619012986.573489) can0 456#5100000000000000
(1619012986.580150) can0 459#F6FFFE7F08000000
(1619012986.581524) can0 052#31EB030000000000
(1619012986.588779) can0 45A#FA7F010000000000
(1619012986.588885) can0 456#5300000000000000
(1619012986.596495) can0 459#FDFFFEFF04000000
(1619012986.596643) can0 051#3003000000000000
(1619012986.603568) can0 458#1E25000000000000
(1619012986.615640) can0 457#B48D1C0000000000
(1619012986.616095) can0 053#8200000000000000
(1619012986.616213) can0 054#5E03000000000000
(1619012986.632728) can0 459#1100FEFF03000000
(1619012986.633036) can0 456#5400000000000000
(1619012986.655322) can0 459#1800008005000000
(1619012986.655551) can0 052#31EB030000000000
(1619012986.666330) can0 457#B48D1D0000000000
(1619012986.666567) can0 456#5600000000000000
(1619012986.678535) can0 45A#FEFF020000000000
(1619012986.686454) can0 459#2000000003000000
(1619012986.692632) can0 458#1E25000000000000
(1619012986.692835) can0 456#5700000000000000
(1619012986.701204) can0 459#3400010005000000
(1619012986.701735) can0 052#31EB030000000000
(1619012986.708873) can0 457#B48D1E0000000000
(1619012986.722939) can0 456#5900000000000000
(1619012986.723165) can0 459#3600018002000000
(1619012986.729879) can0 456#5A00000000000000
(1619012986.730480) can0 458#1E25000000000000
(1619012986.736629) can0 052#31EB030000000000
(1619012986.737738) can0 45A#0000040000000000
(1619012986.746369) can0 459#40000100FF1F0000
(1619012986.754265) can0 456#5C00000000000000
(1619012986.754475) can0 457#B10D180000000000
(1619012986.761176) can0 456#5D00000000000000
(1619012986.762258) can0 459#4500010001000000
(1619012986.768793) can0 459#4000018002000000
(1619012986.776431) can0 052#31EB030000000000
(1619012986.777099) can0 458#1E25000000000000
(1619012986.782158) can0 052#00E8030000000000
(1619012986.782687) can0 456#5000000000000000
(1619012986.782807) can0 457#B10D190000000000
(1619012986.787445) can0 45A#0180050000000000
(1619012986.791316) can0 456#5100000000000000
(1619012986.794101) can0 459#4300018001000000
(1619012986.795786) can0 052#31EB030000000000
(1619012986.797172) can0 459#3B00018001000000
(1619012986.805814) can0 458#1E25000000000000
(1619012986.821822) can0 456#5300000000000000
(1619012986.822558) can0 457#B10D1A0000000000
(1619012986.836175) can0 459#3900030004000000
(1619012986.840310) can0 456#5400000000000000
(1619012986.842785) can0 45A#0100070000000000
(1619012986.848012) can0 052#31EB030000000000
(1619012986.848562) can0 459#3900038001000000
(1619012986.855655) can0 457#B10D1B0000000000
(1619012986.856306) can0 456#5600000000000000
(1619012986.865332) can0 459#3B000100FF1F0000
(1619012986.879840) can0 458#1E25000000000000
(1619012986.881786) can0 456#5700000000000000
(1619012986.888635) can0 459#3400030004000000
(1619012986.889268) can0 052#31EB030000000000
(1619012986.895977) can0 457#AF0D1C0000000000
(1619012986.903863) can0 45A#0300010000000000
(1619012986.909386) can0 456#5900000000000000
(1619012986.909597) can0 459#2700050009000000
(1619012986.914499) can0 458#1E25000000000000
(1619012986.925104) can0 459#2F00058003000000
(1619012986.926187) can0 456#5B00000000000000
(1619012986.940605) can0 457#AF0D1D0000000000
(1619012986.941298) can0 052#31EB030000000000
(1619012986.948523) can0 459#3E00050004000000
(1619012986.963507) can0 45A#0380020000000000
(1619012986.963742) can0 456#5C00000000000000
(1619012986.969349) can0 459#4500078004000000
(1619012986.970769) can0 456#5D00000000000000
(1619012986.972738) can0 458#1E25000000000000
(1619012986.986652) can0 457#AF0D1E0000000000
(1619012986.986884) can0 052#31EB030000000000
(1619012986.993738) can0 459#5900070005000000
(1619012986.994129) can0 052#00E8030000000000
(1619012986.994738) can0 456#5000000000000000
(1619012987.000739) can0 459#6800080003000000
(1619012987.015242) can0 458#1E25000000000000
(1619012987.023988) can0 457#AF0D1F0000000000
(1619012987.024607) can0 456#5100000000000000
(1619012987.028531) can0 45A#0500040000000000
(1619012987.029489) can0 052#31EB030000000000
(1619012987.036452) can0 459#7A00088004000000
(1619012987.037383) can0 456#5300000000000000
(1619012987.046550) can0 459#7C00080004000000
(1619012987.053520) can0 457#AF8D180000000000
(1619012987.059951) can0 456#5400000000000000
(1619012987.061422) can0 459#7F00088001000000
(1619012987.068692) can0 052#31EB030000000000
(1619012987.070771) can0 458#1E25000000000000
(1619012987.076081) can0 45A#0880050000000000
(1619012987.083762) can0 456#5600000000000000
(1619012987.084070) can0 459#7A000800FE1F0000
(1619012987.089100) can0 457#A88D190000000000
(1619012987.094805) can0 459#75000800FE1F0000
(1619012987.098604) can0 458#1E25000000000000
(1619012987.103743) can0 456#5700000000000000
(1619012987.112749) can0 459#57000800FE1F0000
(1619012987.113972) can0 052#31EB030000000000
(1619012987.127494) can0 457#A48D1A0000000000
(1619012987.143937) can0 45A#0800070000000000
(1619012987.144786) can0 456#5900000000000000
(1619012987.148053) can0 459#40000880FD1F0000
(1619012987.149522) can0 456#5A00000000000000
(1619012987.155656) can0 459#34000800FF1F0000
(1619012987.157247) can0 052#31EB030000000000
(1619012987.164812) can0 458#1E25000000000000
(1619012987.173790) can0 457#A48D1B0000000000
(1619012987.174190) can0 456#5C00000000000000
(1619012987.189789) can0 459#2A000880FF1F0000
(1619012987.197104) can0 45A#0800010000000000
(1619012987.197932) can0 456#5D00000000000000
(1619012987.204102) can0 459#22000700FB1F0000
(1619012987.209340) can0 052#31EB030000000000
(1619012987.215142) can0 458#1E25000000000000
(1619012987.216082) can0 053#8200000000000000
(1619012987.216843) can0 054#5E03000000000000
(1619012987.223502) can0 053#8200000000000000
(1619012987.224606) can0 456#5000000000000000
(1619012987.226003) can0 457#A38D1C0000000000
(1619012987.231344) can0 459#22000700FA1F0000
(1619012987.245757) can0 459#0E000700FF1F0000
(1619012987.252797) can0 457#A28D1D0000000000
(1619012987.253132) can0 456#5100000000000000
(1619012987.259478) can0 052#31EB030000000000
(1619012987.260781) can0 45A#0880020000000000
(1619012987.267958) can0 458#1E25000000000000
(1619012987.270004) can0 456#5300000000000000
(1619012987.274972) can0 458#1E25000000000000
(1619012987.275241) can0 459#0400070000000000
(1619012987.283174) can0 459#0700070001000000
(1619012987.291127) can0 457#9B8D1E0000000000
(1619012987.291358) can0 456#5400000000000000
(1619012987.297182) can0 459#1800078003000000
(1619012987.297801) can0 052#31EB030000000000
(1619012987.300887) can0 458#1E25000000000000
(1619012987.304795) can0 45A#0700040000000000
(1619012987.308544) can0 459#2C00070002000000
(1619012987.312067) can0 456#5600000000000000
(1619012987.313876) can0 457#9B0D180000000000
(1619012987.319915) can0 459#4800078000000000
(1619012987.323046) can0 458#1E25000000000000
(1619012987.327275) can0 459#5700088000000000
(1619012987.334689) can0 457#9B0D190000000000
(1619012987.335285) can0 456#5700000000000000
(1619012987.338278) can0 45A#0780050000000000
(1619012987.344081) can0 052#31EB030000000000
(1619012987.344451) can0 459#6D00080000000000
(1619012987.344703) can0 45A#0700000000000000
(1619012987.349759) can0 459#7A00088001000000
(1619012987.350713) can0 051#3003000000000000
(1619012987.353785) can0 458#1E25000000000000
(1619012987.357754) can0 457#980D1A0000000000
(1619012987.361250) can0 456#5900000000000000
(1619012987.366670) can0 457#980D000000000000
(1619012987.367785) can0 459#7F00080000000000
(1619012987.371789) can0 45A#0800070000000000
(1619012987.375031) can0 459#90000880FF1F0000
(1619012987.380062) can0 457#930D1B0000000000
(1619012987.381133) can0 456#5A00000000000000
(1619012987.384788) can0 459#9F00088001000000
(1619012987.391461) can0 458#1E25000000000000
(1619012987.395481) can0 052#31EB030000000000
(1619012987.397739) can0 459#A4000880FF1F0000
(1619012987.402161) can0 457#910D1C0000000000
(1619012987.409839) can0 45A#0800010000000000
(1619012987.409960) can0 456#5C00000000000000
(1619012987.413731) can0 459#A700080000000000
(1619012987.413968) can0 45A#0800000000000000
(1619012987.418282) can0 458#1E25000000000000
(1619012987.424385) can0 459#9D00080003000000
(1619012987.426317) can0 456#5D00000000000000
(1619012987.432913) can0 457#910D1D0000000000
(1619012987.439351) can0 459#9800080001000000
(1619012987.440283) can0 052#31EB030000000000
(1619012987.446790) can0 45A#0880020000000000
(1619012987.451320) can0 459#9500080002000000
(1619012987.454731) can0 052#00E8030000000000
(1619012987.454960) can0 456#5000000000000000
(1619012987.455207) can0 458#1E25000000000000
(1619012987.461973) can0 457#910D1E0000000000
(1619012987.471018) can0 457#910D000000000000
(1619012987.471246) can0 459#9800080000000000
(1619012987.477388) can0 459#A700088001000000
(1619012987.478232) can0 456#5100000000000000
(1619012987.480777) can0 458#1E25000000000000
(1619012987.485407) can0 052#31EB030000000000
(1619012987.485988) can0 457#8E0D1F0000000000
(1619012987.492738) can0 45A#0800040000000000
(1619012987.496285) can0 456#5300000000000000
(1619012987.497738) can0 459#AC00088001000000
(1619012987.500835) can0 459#AC000880FE1F0000
(1619012987.507025) can0 457#8C8D180000000000
(1619012987.510254) can0 459#AE000880FF1F0000
(1619012987.515740) can0 458#1E25000000000000
(1619012987.522709) can0 45A#0880050000000000
(1619012987.523410) can0 456#5400000000000000
(1619012987.530107) can0 052#31EB030000000000
(1619012987.530591) can0 459#A700080001000000
(1619012987.537656) can0 457#8D8D190000000000
(1619012987.541770) can0 457#8D0D000000000000
(1619012987.541987) can0 459#A900080000000000
(1619012987.546934) can0 456#5600000000000000
(1619012987.547150) can0 458#1E25000000000000
(1619012987.552775) can0 459#A7000800FF1F0000
(1619012987.559394) can0 457#8D8D1A0000000000
(1619012987.563786) can0 45A#0800070000000000
(1619012987.567058) can0 456#5700000000000000
(1619012987.568102) can0 459#98000880FF1F0000
(1619012987.574899) can0 459#89000800FF1F0000
(1619012987.577678) can0 052#31EB030000000000
(1619012987.579787) can0 458#1E25000000000000
(1619012987.586840) can0 457#8D8D1B0000000000
(1619012987.601129) can0 459#84000800FE1F0000
(1619012987.608838) can0 456#5900000000000000
(1619012987.609242) can0 45A#0800010000000000
(1619012987.622935) can0 456#5A00000000000000
(1619012987.623710) can0 459#7A000800FF1F0000
(1619012987.627659) can0 458#1E25000000000000
(1619012987.627892) can0 052#31EB030000000000
(1619012987.637717) can0 457#888D1C0000000000
(1619012987.646058) can0 456#5C00000000000000
(1619012987.646281) can0 459#75000800FF1F0000
(1619012987.653321) can0 459#6D00080000000000
(1619012987.659849) can0 456#5D00000000000000
(1619012987.661079) can0 457#888D1D0000000000
(1619012987.668729) can0 45A#0880020000000000
(1619012987.676493) can0 052#31EB030000000000
(1619012987.680359) can0 459#7000088000000000
(1619012987.680825) can0 052#00E8030000000000
(1619012987.681043) can0 456#5000000000000000
(1619012987.683737) can0 458#1E25000000000000
(1619012987.687737) can0 459#6D00088000000000
(1619012987.691023) can0 457#898D1E0000000000
(1619012987.698826) can0 459#7700080002000000
(1619012987.703147) can0 458#1E25000000000000
(1619012987.703842) can0 456#5100000000000000
(1619012987.709349) can0 45A#0800040000000000
(1619012987.710159) can0 052#31EB030000000000
(1619012987.713738) can0 459#8100080003000000
(1619012987.716807) can0 457#870D180000000000
(1619012987.724383) can0 459#98000A8001000000
(1619012987.727423) can0 456#5300000000000000
(1619012987.728433) can0 459#B8000A8000000000
(1619012987.742527) can0 458#1E25000000000000
(1619012987.758601) can0 457#870D190000000000
(1619012987.759348) can0 456#5400000000000000
(1619012987.765892) can0 45A#0880050000000000
(1619012987.766122) can0 052#31EB030000000000
(1619012987.780274) can0 459#C5000A80FF1F0000
(1619012987.781786) can0 456#5600000000000000
(1619012987.787553) can0 459#D4000A8000000000
(1619012987.802741) can0 458#1E25000000000000
(1619012987.803787) can0 456#5700000000000000
(1619012987.811634) can0 052#31EB030000000000
(1619012987.813741) can0 457#870D1A0000000000
(1619012987.818949) can0 459#DE000A80FF1F0000
(1619012987.826550) can0 456#5900000000000000
(1619012987.827738) can0 45A#0A00070000000000
(1619012987.833091) can0 053#8200000000000000
(1619012987.833453) can0 054#5E03000000000000
(1619012987.833562) can0 459#DB000880FE1F0000
(1619012987.847594) can0 456#5A00000000000000
(1619012987.847919) can0 457#870D1B0000000000
(1619012987.856037) can0 052#31EB030000000000
(1619012987.856925) can0 457#870D000000000000
(1619012987.857023) can0 459#C500080000000000
(1619012987.863440) can0 458#1E25000000000000
(1619012987.882077) can0 459#A7000880FF1F0000
(1619012987.882309) can0 456#5C00000000000000
(1619012987.886293) can0 457#840D1C0000000000
(1619012987.892345) can0 456#5D00000000000000
(1619012987.893513) can0 45A#0A00010000000000
(1619012987.907593) can0 459#A700080000000000
(1619012987.908379) can0 45A#0A00000000000000
(1619012987.909059) can0 052#31EB030000000000
(1619012987.916023) can0 458#1E25000000000000
(1619012987.916708) can0 052#00E8030000000000
(1619012987.916952) can0 456#5000000000000000
(1619012987.923203) can0 459#AC000800FF1F0000
(1619012987.931042) can0 457#820D1D0000000000
(1619012987.935666) can0 459#A4000800FF1F0000
(1619012987.936090) can0 456#5100000000000000
(1619012987.938759) can0 052#31EB030000000000
(1619012987.946310) can0 45A#0880020000000000
(1619012987.953520) can0 459#95000800FE1F0000
(1619012987.959973) can0 456#5300000000000000
(1619012987.961065) can0 458#1E25000000000000
(1619012987.968427) can0 457#7E0D1E0000000000
(1619012987.975942) can0 457#7E0D000000000000
(1619012987.976066) can0 459#8B00080000000000
(1619012987.976766) can0 456#5400000000000000
(1619012987.983792) can0 459#8B00080000000000
(1619012987.989146) can0 052#31EB030000000000
(1619012987.989263) can0 458#1E25000000000000
(1619012987.995113) can0 457#7E0D1F0000000000
(1619012987.999150) can0 45A#0800040000000000
(1619012988.006512) can0 456#5600000000000000
(1619012988.006992) can0 459#8B000880FF1F0000
(1619012988.015794) can0 459#89000880FF1F0000
(1619012988.020778) can0 457#7E8D180000000000
(1619012988.024926) can0 456#5700000000000000
(1619012988.037032) can0 457#7E0D000000000000
(1619012988.037833) can0 459#8900080000000000
(1619012988.038024) can0 052#31EB030000000000
(1619012988.047390) can0 458#1E25000000000000
(1619012988.052476) can0 45A#0880050000000000
(1619012988.053283) can0 456#5900000000000000
(1619012988.060778) can0 459#8B000800FF1F0000
(1619012988.066580) can0 457#7A8D190000000000
(1619012988.074478) can0 456#5A00000000000000
(1619012988.080774) can0 459#90000800FE1F0000
(1619012988.090774) can0 052#31EB030000000000
(1619012988.090921) can0 458#1E25000000000000
(1619012988.096879) can0 458#1E25000000000000
(1619012988.100195) can0 459#8B00080000000000
(1619012988.101226) can0 456#5C00000000000000
(1619012988.110771) can0 457#7A8D1A0000000000
(1619012988.112801) can0 45A#0800070000000000
(1619012988.112904) can0 456#5D00000000000000
(1619012988.117752) can0 051#3003000000000000
(1619012988.118347) can0 459#8E000800FE1F0000
(1619012988.130768) can0 459#93000880FD1F0000
(1619012988.133874) can0 458#1E25000000000000
(1619012988.134152) can0 052#31EB030000000000
(1619012988.141838) can0 457#7A8D1B0000000000
(1619012988.141942) can0 052#00E8030000000000
(1619012988.142179) can0 456#5000000000000000
(1619012988.148366) can0 459#8E000800FF1F0000
(1619012988.157088) can0 45A#0800010000000000
(1619012988.164264) can0 459#8E000800FF1F0000
(1619012988.169382) can0 458#1E25000000000000
(1619012988.170772) can0 456#5100000000000000
(1619012988.174516) can0 457#7A8D1C0000000000
(1619012988.174813) can0 052#31EB030000000000
(1619012988.178595) can0 459#81000700FF1F0000
(1619012988.192376) can0 459#72000700FF1F0000
(1619012988.193724) can0 456#5300000000000000
(1619012988.201766) can0 457#778D1D0000000000
(1619012988.209100) can0 456#5400000000000000
(1619012988.209791) can0 45A#0880020000000000
(1619012988.216080) can0 459#6D00070000000000
(1619012988.216630) can0 45A#0800000000000000
(1619012988.216872) can0 052#31EB030000000000
(1619012988.223254) can0 458#1E25000000000000
(1619012988.231344) can0 459#68000780FF1F0000
(1619012988.231572) can0 456#5600000000000000
(1619012988.237431) can0 457#768D1E0000000000
(1619012988.246465) can0 457#760D000000000000
(1619012988.246702) can0 459#6800070000000000
(1619012988.253781) can0 458#1E25000000000000
(1619012988.254019) can0 456#5700000000000000
(1619012988.261903) can0 45A#0700040000000000
(1619012988.262060) can0 052#31EB030000000000
(1619012988.268353) can0 459#6800070000000000
(1619012988.270772) can0 45A#0700000000000000
(1619012988.275320) can0 457#750D180000000000
(1619012988.287147) can0 459#6800070001000000
(1619012988.287273) can0 456#5900000000000000
(1619012988.288597) can0 458#1E25000000000000
(1619012988.293779) can0 458#1E25000000000000
(1619012988.294004) can0 459#6D00070000000000
(1619012988.298410) can0 457#750D190000000000
(1619012988.299181) can0 456#5A00000000000000
(1619012988.302956) can0 45A#0780050000000000
(1619012988.306144) can0 052#31EB030000000000
(1619012988.311348) can0 459#77000780FF1F0000
(1619012988.319954) can0 459#7700070000000000
(1619012988.327429) can0 458#1E25000000000000
(1619012988.330769) can0 456#5C00000000000000
(1619012988.340630) can0 457#750D1A0000000000
(1619012988.344140) can0 459#7A000780FF1F0000
(1619012988.353429) can0 45A#0700070000000000
(1619012988.357746) can0 456#5D00000000000000
(1619012988.360769) can0 459#7A000780FF1F0000
(1619012988.370770) can0 457#750D1B0000000000
(1619012988.373404) can0 052#31EB030000000000
(1619012988.380558) can0 459#72000780FF1F0000
(1619012988.381126) can0 052#00E8030000000000
(1619012988.381706) can0 456#5000000000000000
(1619012988.385733) can0 458#1E25000000000000
(1619012988.386400) can0 458#1E25000000000000
(1619012988.390772) can0 459#6B00070000000000
(1619012988.400771) can0 457#750D1C0000000000
(1619012988.403826) can0 45A#0700010000000000
(1619012988.410770) can0 456#5100000000000000
(1619012988.416194) can0 459#61000700FF1F0000
(1619012988.417428) can0 052#31EB030000000000
(1619012988.426114) can0 458#1E25000000000000
(1619012988.430774) can0 456#5300000000000000
(1619012988.440768) can0 459#5C000780FF1F0000
(1619012988.448052) can0 053#8200000000000000
(1619012988.448348) can0 054#5E03000000000000
(1619012988.450768) can0 457#750D1D0000000000
(1619012988.462844) can0 459#5C000780FC1F0000
(1619012988.464039) can0 456#5400000000000000
(1619012988.468136) can0 45A#0780020000000000
(1619012988.470773) can0 052#31EB030000000000
(1619012988.472178) can0 458#1E25000000000000
(1619012988.473018) can0 456#5600000000000000
(1619012988.475744) can0 458#1E25000000000000
(1619012988.480273) can0 459#4800070000000000
(1619012988.483511) can0 457#760D1E0000000000
(1619012988.485865) can0 456#5700000000000000
(1619012988.490772) can0 459#4000078000000000
(1619012988.496361) can0 459#3900070000000000
(1619012988.497693) can0 052#31EB030000000000
(1619012988.500771) can0 458#1E25000000000000
(1619012988.505009) can0 457#760D1F0000000000
(1619012988.510769) can0 45A#0700040000000000
(1619012988.520733) can0 459#2A000700FF1F0000
(1619012988.523488) can0 456#5900000000000000
(1619012988.526414) can0 459#2000070000000000
(1619012988.532093) can0 457#748D180000000000
(1619012988.540773) can0 456#5A00000000000000
(1619012988.545580) can0 052#31EB030000000000
(1619012988.550768) can0 459#20000780FE1F0000
(1619012988.555929) can0 458#1E25000000000000
(1619012988.561538) can0 456#5C00000000000000
(1619012988.567829) can0 45A#0780050000000000
(1619012988.570772) can0 459#16000500FF1F0000
(1619012988.576250) can0 456#5D00000000000000
(1619012988.580774) can0 457#778D190000000000
(1619012988.590321) can0 459#09000580FC1F0000
(1619012988.590769) can0 458#1E25000000000000
(1619012988.597628) can0 052#31EB030000000000
(1619012988.600178) can0 459#FDFF0580FD1F0000
(1619012988.606175) can0 052#00E8030000000000
(1619012988.606473) can0 456#5000000000000000
(1619012988.610771) can0 457#778D1A0000000000
(1619012988.620772) can0 45A#0700070000000000
(1619012988.630770) can0 459#FBFF0580FF1F0000
(1619012988.637059) can0 456#5100000000000000
(1619012988.640772) can0 459#F6FF050000000000
(1619012988.645612) can0 052#31EB030000000000
(1619012988.648560) can0 458#1E25000000000000
(1619012988.650771) can0 456#5300000000000000
(1619012988.655584) can0 457#768D1B0000000000
(1619012988.660772) can0 459#F3FF0500FF1F0000
(1619012988.665729) can0 45A#0500010000000000
(1619012988.670769) can0 456#5400000000000000
(1619012988.674221) can0 459#F3FF0580FD1F0000
(1619012988.680771) can0 052#31EB030000000000
(1619012988.690437) can0 458#1E25000000000000
(1619012988.702196) can0 456#5600000000000000
(1619012988.710776) can0 457#768D1C0000000000
(1619012988.711465) can0 459#F8FF0380FC1F0000
(1619012988.712165) can0 456#5700000000000000
(1619012988.716464) can0 459#F3FF0300FD1F0000
(1619012988.720771) can0 052#31EB030000000000
(1619012988.730769) can0 457#778D1D0000000000
(1619012988.740649) can0 45A#0580020000000000
(1619012988.741383) can0 458#1E25000000000000
(1619012988.747905) can0 456#5900000000000000
(1619012988.750772) can0 459#F3FF0380FD1F0000
(1619012988.756609) can0 459#F1FF0100FD1F0000
(1619012988.760772) can0 456#5A00000000000000
(1619012988.769489) can0 457#778D1E0000000000
(1619012988.770771) can0 052#31EB030000000000
(1619012988.775433) can0 459#ECFF0100FF1F0000
(1619012988.780770) can0 458#1E25000000000000
(1619012988.785467) can0 456#5C00000000000000
(1619012988.790770) can0 45A#0300040000000000
(1619012988.794358) can0 459#E7FF0180FE1F0000
(1619012988.801876) can0 457#7A0D180000000000
(1619012988.803376) can0 456#5D00000000000000
(1619012988.809506) can0 457#7A0D000000000000
(1619012988.810777) can0 459#E2FF010000000000
(1619012988.817182) can0 052#31EB030000000000
(1619012988.820776) can0 458#1E25000000000000
(1619012988.827403) can0 052#00E8030000000000
(1619012988.828319) can0 456#5000000000000000
(1619012988.830776) can0 459#EEFF018000000000
(1619012988.837507) can0 457#790D190000000000
(1619012988.840776) can0 45A#0180050000000000
(1619012988.860776) can0 459#0400018001000000
(1619012988.862862) can0 456#5100000000000000
(1619012988.864414) can0 459#1B00030002000000
(1619012988.876877) can0 052#31EB030000000000
(1619012988.880777) can0 458#1E25000000000000
(1619012988.884551) can0 456#5300000000000000
(1619012988.887647) can0 457#790D1A0000000000
(1619012988.890777) can0 459#3100030004000000
(1619012988.896038) can0 051#3003000000000000
(1619012988.900777) can0 45A#0100070000000000
(1619012988.905986) can0 456#5400000000000000
(1619012988.910771) can0 459#4800030004000000
(1619012988.912934) can0 052#31EB030000000000
(1619012988.920769) can0 457#790D1B0000000000
(1619012988.921426) can0 456#5600000000000000
(1619012988.928742) can0 459#6600050004000000
(1619012988.930639) can0 458#1E25000000000000
(1619012988.940466) can0 459#7C00058002000000
(1619012988.943732) can0 456#5700000000000000
(1619012988.946539) can0 457#790D1C0000000000
(1619012988.951355) can0 052#31EB030000000000
(1619012988.954984) can0 45A#0300010000000000
(1619012988.960771) can0 459#9000050002000000
(1619012988.969813) can0 458#1E25000000000000
(1619012988.970528) can0 459#9A00058000000000
(1619012988.973228) can0 456#5900000000000000
(1619012988.976948) can0 457#790D1D0000000000
(1619012988.980715) can0 459#A7000580FF1F0000
(1619012988.984009) can0 45A#0580020000000000
(1619012988.984664) can0 456#5A00000000000000
(1619012988.988282) can0 459#AE000580FF1F0000
(1619012988.990772) can0 458#1E25000000000000
(1619012988.993184) can0 052#31EB030000000000
(1619012988.998923) can0 457#790D1E0000000000
(1619012989.000767) can0 459#B600058000000000
(1619012989.007676) can0 456#5C00000000000000
(1619012989.008184) can0 459#AE000500FD1F0000
(1619012989.015215) can0 458#1E25000000000000
(1619012989.018291) can0 457#790D1F0000000000
(1619012989.020767) can0 45A#0500040000000000
(1619012989.029541) can0 459#A9000500FF1F0000
(1619012989.030300) can0 459#93000580FD1F0000
(1619012989.030770) can0 456#5D00000000000000
(1619012989.037751) can0 457#7C8D180000000000
(1619012989.040769) can0 459#81000500FD1F0000
(1619012989.042048) can0 052#31EB030000000000
(1619012989.044195) can0 458#1E25000000000000
(1619012989.044749) can0 053#8200000000000000
(1619012989.046946) can0 054#5E03000000000000
(1619012989.050769) can0 45A#0580050000000000
(1619012989.055904) can0 459#7A000580FD1F0000
(1619012989.056629) can0 053#8200000000000000
(1619012989.060772) can0 456#5000000000000000
(1619012989.070770) can0 457#7C8D190000000000
(1619012989.074799) can0 459#6B000500FF1F0000
(1619012989.078300) can0 458#1E25000000000000
(1619012989.080770) can0 456#5100000000000000
(1619012989.085912) can0 459#6300050001000000
(1619012989.090771) can0 052#31EB030000000000
(1619012989.100770) can0 457#7C8D1A0000000000
(1619012989.108146) can0 45A#0500070000000000
(1619012989.110771) can0 456#5300000000000000
(1619012989.117001) can0 459#6100050000000000
(1619012989.120770) can0 45A#0500000000000000
(1619012989.124028) can0 459#5E00050001000000
(1619012989.130479) can0 456#5400000000000000
(1619012989.131161) can0 458#1E25000000000000
(1619012989.134535) can0 052#31EB030000000000
(1619012989.140771) can0 457#7C8D1B0000000000
(1619012989.145784) can0 459#6100058000000000
(1619012989.148318) can0 456#5600000000000000
(1619012989.161265) can0 45A#0500010000000000
(1619012989.168648) can0 456#5700000000000000
(1619012989.170768) can0 459#7000058000000000
(1619012989.176984) can0 052#31EB030000000000
(1619012989.180768) can0 458#1E25000000000000
(1619012989.185414) can0 457#7C8D1C0000000000
(1619012989.190768) can0 459#7200058000000000
(1619012989.192517) can0 456#5900000000000000
(1619012989.193739) can0 459#7A00050000000000
(1619012989.196923) can0 457#7A8D1D0000000000
(1619012989.205486) can0 45A#0580020000000000
(1619012989.213701) can0 458#1E25000000000000
(1619012989.214559) can0 456#5A00000000000000
(1619012989.222212) can0 459#7A000580FF1F0000
(1619012989.222736) can0 052#31EB030000000000
(1619012989.228626) can0 459#7C000500FF1F0000
(1619012989.235639) can0 457#7E8D1E0000000000
(1619012989.236213) can0 456#5C00000000000000
(1619012989.243484) can0 459#70000580FD1F0000
(1619012989.249832) can0 458#1E25000000000000
(1619012989.253750) can0 45A#0500040000000000
(1619012989.257107) can0 456#5D00000000000000
(1619012989.273610) can0 459#5E000500FF1F0000
(1619012989.281331) can0 457#7E0D180000000000
(1619012989.281559) can0 052#31EB030000000000
(1619012989.288677) can0 459#48000300FE1F0000
(1619012989.289218) can0 052#00E8030000000000
(1619012989.289459) can0 456#5000000000000000
(1619012989.294517) can0 458#1E25000000000000
(1619012989.302570) can0 459#3E00038000000000
(1619012989.317647) can0 457#7E0D190000000000
(1619012989.318753) can0 456#5100000000000000
(1619012989.326066) can0 45A#0580050000000000
(1619012989.326709) can0 052#31EB030000000000
(1619012989.340236) can0 459#34000300FE1F0000
(1619012989.341288) can0 456#5300000000000000
(1619012989.348514) can0 459#34000300FC1F0000
(1619012989.356104) can0 458#1E25000000000000
(1619012989.356230) can0 456#5400000000000000
(1619012989.363750) can0 457#820D1A0000000000
(1619012989.363892) can0 052#30EB030000000000
(1619012989.370903) can0 459#27000100FF1F0000
(1619012989.376820) can0 45A#0300070000000000
(1619012989.385970) can0 456#5600000000000000
(1619012989.386387) can0 459#2000010000000000
(1619012989.386491) can0 45A#0300000000000000
(1619012989.391335) can0 457#820D1B0000000000
(1619012989.399870) can0 459#18000100FF1F0000
(1619012989.401163) can0 456#5700000000000000
(1619012989.408605) can0 458#1E25000000000000
(1619012989.409922) can0 052#30EB030000000000
(1619012989.415129) can0 459#2A00030002000000
(1619012989.418782) can0 457#7F0D1C0000000000
(1619012989.425788) can0 45A#0100010000000000
(1619012989.431365) can0 459#3B00038000000000
(1619012989.437268) can0 456#5900000000000000
(1619012989.437505) can0 458#1E25000000000000
(1619012989.445957) can0 459#5200038001000000
(1619012989.453512) can0 456#5A00000000000000
(1619012989.453752) can0 457#820D1D0000000000
(1619012989.457718) can0 052#30EB030000000000
(1619012989.460145) can0 459#5700038001000000
(1619012989.468496) can0 45A#0380020000000000
(1619012989.475015) can0 458#1E25000000000000
(1619012989.482460) can0 456#5C00000000000000
(1619012989.484032) can0 459#6600030003000000
(1619012989.490866) can0 457#820D1E0000000000
(1619012989.493373) can0 456#5D00000000000000
(1619012989.495058) can0 459#7000050004000000
(1619012989.505363) can0 459#7500050003000000
(1619012989.513793) can0 458#1E25000000000000
(1619012989.514737) can0 052#30EB030000000000
(1619012989.528596) can0 457#820D1F0000000000
(1619012989.528919) can0 052#00E8030000000000
(1619012989.529049) can0 456#5000000000000000
(1619012989.542428) can0 45A#0300040000000000
(1619012989.546235) can0 459#9000058003000000
(1619012989.546850) can0 456#5100000000000000
(1619012989.549945) can0 459#A700050002000000
(1619012989.551465) can0 052#30EB030000000000
(1619012989.553674) can0 457#878D180000000000
(1619012989.556562) can0 458#1E25000000000000
(1619012989.566171) can0 459#BB000580FD1F0000
(1619012989.572562) can0 456#5300000000000000
(1619012989.578026) can0 45A#0580050000000000
(1619012989.588263) can0 459#BD00050000000000
(1619012989.588495) can0 45A#0500000000000000
(1619012989.592423) can0 456#5400000000000000
(1619012989.595306) can0 457#878D190000000000
(1619012989.596342) can0 052#30EB030000000000
(1619012989.601459) can0 459#B6000580FF1F0000
(1619012989.610445) can0 458#1E25000000000000
(1619012989.633557) can0 456#5600000000000000
(1619012989.634004) can0 459#9A000580FF1F0000
(1619012989.650020) can0 457#8C8D1A0000000000
(1619012989.657180) can0 456#5700000000000000
(1619012989.657381) can0 45A#0500070000000000
(1619012989.662859) can0 052#30EB030000000000
(1619012989.670461) can0 459#9F000500FE1F0000
(1619012989.671749) can0 051#3003000000000000
(1619012989.675637) can0 459#90000580FD1F0000
(1619012989.685656) can0 458#1E25000000000000
(1619012989.687294) can0 053#8200000000000000
(1619012989.687477) can0 054#5E03000000000000
(1619012989.694884) can0 457#8C8D1B0000000000
(1619012989.695253) can0 456#5900000000000000
(1619012989.702077) can0 459#86000380FA1F0000
(1619012989.702317) can0 456#5A00000000000000
(1619012989.710031) can0 45A#0500010000000000
(1619012989.710770) can0 052#30EB030000000000
(1619012989.716451) can0 459#7C000300FF1F0000
(1619012989.723817) can0 456#5C00000000000000
(1619012989.724016) can0 458#1E25000000000000
(1619012989.728068) can0 457#8A8D1C0000000000
(1619012989.729250) can0 456#5D00000000000000
(1619012989.731225) can0 459#6B000300FE1F0000
(1619012989.735130) can0 459#61000300FE1F0000
(1619012989.746139) can0 052#30EB030000000000
(1619012989.746350) can0 457#8A8D1D0000000000
(1619012989.752739) can0 45A#0380020000000000
(1619012989.760774) can0 458#1E25000000000000
(1619012989.760949) can0 052#00E8030000000000
(1619012989.761463) can0 456#5000000000000000
(1619012989.774737) can0 459#5700038001000000
(1619012989.783027) can0 459#5200030001000000
(1619012989.783252) can0 456#5100000000000000
(1619012989.791059) can0 457#8C8D1E0000000000
(1619012989.794279) can0 052#30EB030000000000
(1619012989.796101) can0 459#52000380FF1F0000
(1619012989.805780) can0 458#1E25000000000000
(1619012989.806851) can0 456#5300000000000000
(1619012989.813653) can0 45A#0300040000000000
(1619012989.820685) can0 459#5400038000000000
(1619012989.836246) can0 456#5400000000000000
(1619012989.836821) can0 457#8D0D180000000000
(1619012989.842644) can0 052#30EB030000000000
(1619012989.843294) can0 457#8D0D000000000000
(1619012989.843939) can0 459#5400030000000000
(1619012989.850908) can0 458#1E25000000000000
(1619012989.854185) can0 456#5600000000000000
(1619012989.855476) can0 459#54000300FF1F0000
(1619012989.865205) can0 457#8D0D190000000000
(1619012989.880050) can0 45A#0380050000000000
(1619012989.881216) can0 456#5700000000000000
(1619012989.895037) can0 459#5400038000000000
(1619012989.895301) can0 052#30EB030000000000
(1619012989.904329) can0 459#54000300FE1F0000
(1619012989.906873) can0 458#1E25000000000000
(1619012989.908431) can0 456#5900000000000000
(1619012989.911084) can0 457#920D1A0000000000
(1619012989.914541) can0 459#4F000300FF1F0000
(1619012989.918316) can0 45A#0300070000000000
(1619012989.926173) can0 456#5A00000000000000
(1619012989.926587) can0 459#45000300FF1F0000
(1619012989.940952) can0 457#920D1B0000000000
(1619012989.941163) can0 052#30EB030000000000
(1619012989.955197) can0 459#2C000300FC1F0000
(1619012989.963221) can0 458#1E25000000000000
(1619012989.963539) can0 456#5C00000000000000
(1619012989.966738) can0 459#2A000300FD1F0000
(1619012989.970133) can0 456#5D00000000000000
(1619012989.971067) can0 457#960D1C0000000000
(1619012989.976619) can0 45A#0300010000000000
(1619012989.982123) can0 459#27000100FF1F0000
(1619012989.986611) can0 052#30EB030000000000
(1619012989.987395) can0 458#1E25000000000000
(1619012989.992753) can0 459#18000180FA1F0000
(1619012989.997822) can0 052#00E8030000000000
(1619012989.997944) can0 456#5000000000000000
(1619012990.000043) can0 457#920D1D0000000000
(1619012990.007306) can0 459#20000180F91F0000
(1619012990.014934) can0 45A#0380020000000000
(1619012990.019986) can0 458#1E25000000000000
(1619012990.023495) can0 456#5100000000000000
(1619012990.024533) can0 458#1E25000000000000
(1619012990.024653) can0 459#1800010000000000
(1619012990.030192) can0 052#30EB030000000000
(1619012990.031574) can0 457#920D1E0000000000
(1619012990.044900) can0 457#920D000000000000
(1619012990.046277) can0 459#1100010000000000
(1619012990.046449) can0 456#5300000000000000
(1619012990.053442) can0 459#0700018000000000
(1619012990.057587) can0 458#1E25000000000000
(1619012990.067360) can0 457#920D1F0000000000
(1619012990.068851) can0 456#5400000000000000
(1619012990.076106) can0 45A#0100040000000000
(1619012990.082455) can0 052#30EB030000000000
(1619012990.083613) can0 459#1800010002000000
(1619012990.097464) can0 459#2F00010002000000
(1619012990.103960) can0 456#5600000000000000
(1619012990.104947) can0 457#918D180000000000
(1619012990.112212) can0 458#1E25000000000000
(1619012990.121102) can0 459#4F00018001000000
(1619012990.121847) can0 456#5700000000000000
(1619012990.135550) can0 45A#0180050000000000
(1619012990.136091) can0 052#30EB030000000000
(1619012990.143963) can0 459#6B00018000000000
(1619012990.150232) can0 457#958D190000000000
(1619012990.150737) can0 456#5900000000000000
(1619012990.156878) can0 459#7F00018000000000
(1619012990.166266) can0 458#1E25000000000000
(1619012990.166497) can0 456#5A00000000000000
(1619012990.173581) can0 459#9300018000000000
(1619012990.173859) can0 052#30EB030000000000
(1619012990.181514) can0 457#958D1A0000000000
(1619012990.188294) can0 45A#0100070000000000
(1619012990.194927) can0 456#5C00000000000000
(1619012990.198935) can0 459#9500010000000000
(1619012990.199143) can0 45A#0100000000000000
(1619012990.203311) can0 459#98000180FF1F0000
(1619012990.209683) can0 458#1E25000000000000
(1619012990.211007) can0 456#5D00000000000000
(1619012990.214500) can0 457#958D1B0000000000
(1619012990.219215) can0 457#950D000000000000
(1619012990.219445) can0 459#9A00010000000000
(1619012990.226102) can0 052#30EB030000000000
(1619012990.227017) can0 45A#0100010000000000
(1619012990.238358) can0 052#00E8030000000000
(1619012990.239092) can0 456#5000000000000000
(1619012990.240767) can0 459#9D00018000000000
(1619012990.244138) can0 458#1E25000000000000
(1619012990.250196) can0 457#9A8D1C0000000000
(1619012990.256446) can0 459#9A000100FE1F0000
(1619012990.260768) can0 456#5100000000000000
(1619012990.262160) can0 459#95000100FD1F0000
(1619012990.266889) can0 052#30EB030000000000
(1619012990.267930) can0 457#9A8D1D0000000000
(1619012990.274462) can0 45A#0180020000000000
(1619012990.278887) can0 459#7F000100FF1F0000
(1619012990.284936) can0 456#5300000000000000
(1619012990.286198) can0 458#1E25000000000000
(1619012990.290093) can0 458#1E25000000000000
(1619012990.290212) can0 459#6100010000000000
(1619012990.294076) can0 457#988D1E0000000000
(1619012990.307723) can0 459#48000180FF1F0000
(1619012990.309206) can0 053#8200000000000000
(1619012990.309311) can0 054#5E03000000000000
(1619012990.316489) can0 458#1E25000000000000
(1619012990.317109) can0 456#5400000000000000
(1619012990.323793) can0 45A#0100040000000000
(1619012990.323905) can0 052#30EB030000000000
(1619012990.331629) can0 459#4300010000000000
(1619012990.332182) can0 45A#0100000000000000
(1619012990.332423) can0 456#5600000000000000
(1619012990.338717) can0 457#9A0D180000000000
(1619012990.346070) can0 457#9A0D000000000000
(1619012990.346198) can0 459#3E00010000000000
(1619012990.350129) can0 456#5700000000000000
(1619012990.350254) can0 458#1E25000000000000
(1619012990.354773) can0 459#3B00018000000000
(1619012990.371086) can0 052#30EB030000000000
(1619012990.373308) can0 457#9A0D190000000000
(1619012990.389920) can0 45A#0180050000000000
(1619012990.391322) can0 456#5900000000000000
(1619012990.406278) can0 459#3E00010000000000
(1619012990.406978) can0 45A#0100000000000000
(1619012990.407074) can0 456#5A00000000000000
(1619012990.421594) can0 459#3B000180FF1F0000
(1619012990.421817) can0 052#30EB030000000000
(1619012990.429059) can0 458#1E25000000000000
(1619012990.443654) can0 457#980D1A0000000000
(1619012990.444109) can0 456#5C00000000000000
(1619012990.451630) can0 457#980D000000000000
(1619012990.452885) can0 459#3B00010000000000
(1619012990.453691) can0 456#5D00000000000000
(1619012990.488432) can0 051#3103000000000000
(1619012990.488601) can0 45A#0100070000000000
(1619012990.508195) can0 459#39000180FF1F0000
(1619012990.510051) can0 052#30EB030000000000
(1619012990.513216) can0 457#980D1B0000000000
(1619012990.515048) can0 052#00E8030000000000
(1619012990.515227) can0 456#5000000000000000
(1619012990.526922) can0 459#39000100FE1F0000
(1619012990.533944) can0 456#5100000000000000
(1619012990.534655) can0 458#1E25000000000000
(1619012990.549053) can0 052#30EB030000000000
(1619012990.549224) can0 459#39000180FF1F0000
(1619012990.586841) can0 457#9B0D1C0000000000
(1619012990.587661) can0 456#5300000000000000
(1619012990.593965) can0 45A#0100010000000000
(1619012990.602281) can0 459#39000100FF1F0000
(1619012990.614578) can0 456#5400000000000000
(1619012990.614940) can0 458#1E25000000000000
(1619012990.694570) can0 052#30EB030000000000
(1619012990.714707) can0 458#1E25000000000000
(1619012990.714907) can0 459#2A00010000000000
(1619012990.729640) can0 456#5600000000000000
(1619012990.730228) can0 457#9B0D1D0000000000
(1619012990.744104) can0 459#20000100FE1F0000
(1619012990.750782) can0 456#5700000000000000
(1619012990.752257) can0 45A#0180020000000000
(1619012990.758221) can0 458#1E25000000000000
(1619012990.759910) can0 052#30EB030000000000
(1619012990.774486) can0 459#13000180FD1F0000
(1619012990.782001) can0 457#9B0D1E0000000000
(1619012990.789374) can0 456#5900000000000000
(1619012990.789999) can0 459#0E000000FF1F0000
(1619012990.796746) can0 456#5A00000000000000
(1619012990.803108) can0 459#02000080FD1F0000
